<Qucs Dataset 26.1.1>
<indep time 315>
0.000000000000e+00
1.000000000000e-08
2.000000000000e-08
4.000000000000e-08
8.000000000000e-08
1.600000000000e-07
2.387477112043e-07
3.326395285853e-07
4.243196727873e-07
6.076799611913e-07
9.744005379993e-07
1.000000000000e-06
1.025351523743e-06
1.076054571228e-06
1.177460666199e-06
1.380272856141e-06
1.785897236026e-06
2.597145995794e-06
4.219643515331e-06
7.464638554405e-06
1.395462863255e-05
2.693460878885e-05
5.289456910144e-05
1.048144897266e-04
2.086543309770e-04
4.163340134777e-04
8.316933784791e-04
1.662412108482e-03
3.323849568488e-03
5.836409568488e-03
8.348969568488e-03
1.086152956849e-02
1.337408956849e-02
1.588664956849e-02
1.839920956849e-02
2.091176956849e-02
2.342432956849e-02
2.593688956849e-02
2.844944956849e-02
3.096200956849e-02
3.347456956849e-02
3.598712956849e-02
3.849968956849e-02
4.101224956849e-02
4.352480956849e-02
4.603736956849e-02
4.854992956849e-02
5.106248956849e-02
5.357504956849e-02
5.608760956849e-02
5.860016956849e-02
6.111272956849e-02
6.362528956849e-02
6.613784956849e-02
6.865040956849e-02
7.116296956849e-02
7.367552956849e-02
7.618808956849e-02
7.870064956849e-02
8.121320956849e-02
8.372576956849e-02
8.623832956849e-02
8.875088956849e-02
9.126344956849e-02
9.377600956849e-02
9.628856956849e-02
9.880112956849e-02
1.000000000000e-01
1.000001000000e-01
1.000003000000e-01
1.000004613163e-01
1.000006205636e-01
1.000008818642e-01
1.000010000000e-01
1.000010084912e-01
1.000010254735e-01
1.000010594381e-01
1.000011141712e-01
1.000012010619e-01
1.000013600970e-01
1.000016781673e-01
1.000023143080e-01
1.000035865893e-01
1.000061311518e-01
1.000112202770e-01
1.000213985272e-01
1.000417550277e-01
1.000824680287e-01
1.001638940308e-01
1.003267460349e-01
1.006524500431e-01
1.013038580595e-01
1.026066740924e-01
1.051192340924e-01
1.076317940924e-01
1.101443540924e-01
1.126569140924e-01
1.151694740924e-01
1.176820340924e-01
1.201945940924e-01
1.227071540924e-01
1.252197140924e-01
1.277322740924e-01
1.302448340924e-01
1.327573940924e-01
1.352699540924e-01
1.377825140924e-01
1.402950740924e-01
1.428076340924e-01
1.453201940924e-01
1.478327540924e-01
1.503453140924e-01
1.528578740924e-01
1.553704340924e-01
1.578829940924e-01
1.603955540924e-01
1.629081140924e-01
1.654206740924e-01
1.679332340924e-01
1.704457940924e-01
1.729583540924e-01
1.754709140924e-01
1.779834740924e-01
1.804960340924e-01
1.830085940924e-01
1.855211540924e-01
1.880337140924e-01
1.905462740924e-01
1.930588340924e-01
1.955713940924e-01
1.980839540924e-01
2.000010000000e-01
2.000011000000e-01
2.000013000000e-01
2.000014301374e-01
2.000015781110e-01
2.000018740581e-01
2.000020000000e-01
2.000020568949e-01
2.000021706846e-01
2.000023893566e-01
2.000028267007e-01
2.000037013888e-01
2.000054507650e-01
2.000089495175e-01
2.000159470224e-01
2.000299420321e-01
2.000579320517e-01
2.001139120909e-01
2.002258721692e-01
2.004497923258e-01
2.008976326391e-01
2.017933132656e-01
2.035846745187e-01
2.060972345187e-01
2.086097945187e-01
2.111223545187e-01
2.136349145187e-01
2.161474745187e-01
2.186600345187e-01
2.211725945187e-01
2.236851545187e-01
2.261977145187e-01
2.287102745187e-01
2.312228345187e-01
2.337353945187e-01
2.362479545187e-01
2.387605145187e-01
2.412730745187e-01
2.437856345187e-01
2.462981945187e-01
2.488107545187e-01
2.513233145187e-01
2.538358745187e-01
2.563484345187e-01
2.588609945187e-01
2.613735545187e-01
2.638861145187e-01
2.663986745187e-01
2.689112345187e-01
2.714237945187e-01
2.739363545187e-01
2.764489145187e-01
2.789614745187e-01
2.814740345187e-01
2.839865945187e-01
2.864991545187e-01
2.890117145187e-01
2.915242745187e-01
2.940368345187e-01
2.965493945187e-01
2.990619545187e-01
3.000010000000e-01
3.000011000000e-01
3.000013000000e-01
3.000017000000e-01
3.000020000000e-01
3.000020128733e-01
3.000020386198e-01
3.000020901130e-01
3.000021930992e-01
3.000023990717e-01
3.000028110167e-01
3.000036349067e-01
3.000052826867e-01
3.000085782467e-01
3.000151693666e-01
3.000283516065e-01
3.000547160863e-01
3.001074450458e-01
3.002129029649e-01
3.004238188031e-01
3.008456504795e-01
3.016893138323e-01
3.033766405379e-01
3.058892005379e-01
3.084017605379e-01
3.109143205379e-01
3.134268805379e-01
3.159394405379e-01
3.184520005379e-01
3.209645605379e-01
3.234771205379e-01
3.259896805379e-01
3.285022405379e-01
3.310148005379e-01
3.335273605379e-01
3.360399205379e-01
3.385524805379e-01
3.410650405379e-01
3.435776005379e-01
3.460901605379e-01
3.486027205379e-01
3.511152805379e-01
3.536278405379e-01
3.561404005379e-01
3.586529605379e-01
3.611655205379e-01
3.636780805379e-01
3.661906405379e-01
3.687032005379e-01
3.712157605379e-01
3.737283205379e-01
3.762408805379e-01
3.787534405379e-01
3.812660005379e-01
3.837785605379e-01
3.862911205379e-01
3.888036805379e-01
3.913162405379e-01
3.938288005379e-01
3.963413605379e-01
3.988539205379e-01
4.000020000000e-01
4.000021000000e-01
4.000023000000e-01
4.000024200994e-01
4.000025831300e-01
4.000028148962e-01
4.000030000000e-01
4.000030463532e-01
4.000031390597e-01
4.000033244727e-01
4.000036952986e-01
4.000044369504e-01
4.000059202541e-01
4.000088868614e-01
4.000148200760e-01
4.000266865053e-01
4.000504193637e-01
4.000978850807e-01
4.001928165147e-01
4.003826793826e-01
4.007624051185e-01
4.015218565903e-01
4.030407595338e-01
4.055533195338e-01
4.080658795338e-01
4.105784395338e-01
4.130909995338e-01
4.156035595338e-01
4.181161195338e-01
4.206286795338e-01
4.231412395338e-01
4.256537995338e-01
4.281663595338e-01
4.306789195338e-01
4.331914795338e-01
4.357040395338e-01
4.382165995338e-01
4.407291595338e-01
4.432417195338e-01
4.457542795338e-01
4.482668395338e-01
4.507793995338e-01
4.532919595338e-01
4.558045195338e-01
4.583170795338e-01
4.608296395338e-01
4.633421995338e-01
4.658547595338e-01
4.683673195338e-01
4.708798795338e-01
4.733924395338e-01
4.759049995338e-01
4.784175595338e-01
4.809301195338e-01
4.834426795338e-01
4.859552395338e-01
4.884677995338e-01
4.909803595338e-01
4.934929195338e-01
4.960054795338e-01
4.985180395338e-01
5.000000000000e-01
</indep>
<dep tran.v(a) time>
0.000000000000e+00
5.000000000000e-02
1.000000000000e-01
2.000000000000e-01
4.000000000000e-01
8.000000000000e-01
1.193738556022e+00
1.663197642926e+00
2.121598363936e+00
3.038399805956e+00
4.872002689996e+00
5.000000000000e+00
5.000000000000e+00
5.000000000000e+00
5.000000000000e+00
5.000000000000e+00
5.000000000000e+00
5.000000000000e+00
5.000000000000e+00
5.000000000000e+00
5.000000000000e+00
5.000000000000e+00
5.000000000000e+00
5.000000000000e+00
5.000000000000e+00
5.000000000000e+00
5.000000000000e+00
5.000000000000e+00
5.000000000000e+00
5.000000000000e+00
5.000000000000e+00
5.000000000000e+00
5.000000000000e+00
5.000000000000e+00
5.000000000000e+00
5.000000000000e+00
5.000000000000e+00
5.000000000000e+00
5.000000000000e+00
5.000000000000e+00
5.000000000000e+00
5.000000000000e+00
5.000000000000e+00
5.000000000000e+00
5.000000000000e+00
5.000000000000e+00
5.000000000000e+00
5.000000000000e+00
5.000000000000e+00
5.000000000000e+00
5.000000000000e+00
5.000000000000e+00
5.000000000000e+00
5.000000000000e+00
5.000000000000e+00
5.000000000000e+00
5.000000000000e+00
5.000000000000e+00
5.000000000000e+00
5.000000000000e+00
5.000000000000e+00
5.000000000000e+00
5.000000000000e+00
5.000000000000e+00
5.000000000000e+00
5.000000000000e+00
5.000000000000e+00
5.000000000000e+00
5.000000000000e+00
5.000000000000e+00
5.000000000000e+00
5.000000000000e+00
5.000000000000e+00
5.000000000000e+00
5.000000000000e+00
5.000000000000e+00
5.000000000000e+00
5.000000000000e+00
5.000000000000e+00
5.000000000000e+00
5.000000000000e+00
5.000000000000e+00
5.000000000000e+00
5.000000000000e+00
5.000000000000e+00
5.000000000000e+00
5.000000000000e+00
5.000000000000e+00
5.000000000000e+00
5.000000000000e+00
5.000000000000e+00
5.000000000000e+00
5.000000000000e+00
5.000000000000e+00
5.000000000000e+00
5.000000000000e+00
5.000000000000e+00
5.000000000000e+00
5.000000000000e+00
5.000000000000e+00
5.000000000000e+00
5.000000000000e+00
5.000000000000e+00
5.000000000000e+00
5.000000000000e+00
5.000000000000e+00
5.000000000000e+00
5.000000000000e+00
5.000000000000e+00
5.000000000000e+00
5.000000000000e+00
5.000000000000e+00
5.000000000000e+00
5.000000000000e+00
5.000000000000e+00
5.000000000000e+00
5.000000000000e+00
5.000000000000e+00
5.000000000000e+00
5.000000000000e+00
5.000000000000e+00
5.000000000000e+00
5.000000000000e+00
5.000000000000e+00
5.000000000000e+00
5.000000000000e+00
5.000000000000e+00
5.000000000000e+00
5.000000000000e+00
5.000000000000e+00
5.000000000000e+00
5.000000000000e+00
4.499999999986e+00
3.499999999957e+00
2.849312774467e+00
2.109444957732e+00
6.297093241242e-01
0.000000000000e+00
0.000000000000e+00
0.000000000000e+00
0.000000000000e+00
0.000000000000e+00
0.000000000000e+00
0.000000000000e+00
0.000000000000e+00
0.000000000000e+00
0.000000000000e+00
0.000000000000e+00
0.000000000000e+00
0.000000000000e+00
0.000000000000e+00
0.000000000000e+00
0.000000000000e+00
0.000000000000e+00
0.000000000000e+00
0.000000000000e+00
0.000000000000e+00
0.000000000000e+00
0.000000000000e+00
0.000000000000e+00
0.000000000000e+00
0.000000000000e+00
0.000000000000e+00
0.000000000000e+00
0.000000000000e+00
0.000000000000e+00
0.000000000000e+00
0.000000000000e+00
0.000000000000e+00
0.000000000000e+00
0.000000000000e+00
0.000000000000e+00
0.000000000000e+00
0.000000000000e+00
0.000000000000e+00
0.000000000000e+00
0.000000000000e+00
0.000000000000e+00
0.000000000000e+00
0.000000000000e+00
0.000000000000e+00
0.000000000000e+00
0.000000000000e+00
0.000000000000e+00
0.000000000000e+00
0.000000000000e+00
0.000000000000e+00
0.000000000000e+00
0.000000000000e+00
0.000000000000e+00
0.000000000000e+00
0.000000000000e+00
0.000000000000e+00
0.000000000000e+00
0.000000000000e+00
0.000000000000e+00
0.000000000000e+00
0.000000000000e+00
0.000000000000e+00
0.000000000000e+00
0.000000000000e+00
0.000000000000e+00
0.000000000000e+00
0.000000000000e+00
0.000000000000e+00
0.000000000000e+00
0.000000000000e+00
0.000000000000e+00
0.000000000000e+00
0.000000000000e+00
0.000000000000e+00
0.000000000000e+00
0.000000000000e+00
0.000000000000e+00
0.000000000000e+00
0.000000000000e+00
0.000000000000e+00
0.000000000000e+00
0.000000000000e+00
0.000000000000e+00
0.000000000000e+00
0.000000000000e+00
0.000000000000e+00
0.000000000000e+00
0.000000000000e+00
0.000000000000e+00
0.000000000000e+00
0.000000000000e+00
0.000000000000e+00
0.000000000000e+00
0.000000000000e+00
0.000000000000e+00
0.000000000000e+00
0.000000000000e+00
0.000000000000e+00
0.000000000000e+00
0.000000000000e+00
0.000000000000e+00
0.000000000000e+00
0.000000000000e+00
0.000000000000e+00
0.000000000000e+00
0.000000000000e+00
0.000000000000e+00
0.000000000000e+00
0.000000000000e+00
0.000000000000e+00
0.000000000000e+00
0.000000000000e+00
0.000000000000e+00
0.000000000000e+00
0.000000000000e+00
0.000000000000e+00
0.000000000000e+00
5.000000000144e-01
1.500000000043e+00
2.100497246971e+00
2.915649781610e+00
4.074480762783e+00
4.999999999866e+00
5.000000000000e+00
5.000000000000e+00
5.000000000000e+00
5.000000000000e+00
5.000000000000e+00
5.000000000000e+00
5.000000000000e+00
5.000000000000e+00
5.000000000000e+00
5.000000000000e+00
5.000000000000e+00
5.000000000000e+00
5.000000000000e+00
5.000000000000e+00
5.000000000000e+00
5.000000000000e+00
5.000000000000e+00
5.000000000000e+00
5.000000000000e+00
5.000000000000e+00
5.000000000000e+00
5.000000000000e+00
5.000000000000e+00
5.000000000000e+00
5.000000000000e+00
5.000000000000e+00
5.000000000000e+00
5.000000000000e+00
5.000000000000e+00
5.000000000000e+00
5.000000000000e+00
5.000000000000e+00
5.000000000000e+00
5.000000000000e+00
5.000000000000e+00
5.000000000000e+00
5.000000000000e+00
5.000000000000e+00
5.000000000000e+00
5.000000000000e+00
5.000000000000e+00
5.000000000000e+00
5.000000000000e+00
5.000000000000e+00
5.000000000000e+00
5.000000000000e+00
5.000000000000e+00
5.000000000000e+00
5.000000000000e+00
5.000000000000e+00
5.000000000000e+00
5.000000000000e+00
5.000000000000e+00
5.000000000000e+00
5.000000000000e+00
</dep>
<dep tran.v(b) time>
0.000000000000e+00
0.000000000000e+00
0.000000000000e+00
0.000000000000e+00
0.000000000000e+00
0.000000000000e+00
0.000000000000e+00
0.000000000000e+00
0.000000000000e+00
0.000000000000e+00
0.000000000000e+00
0.000000000000e+00
0.000000000000e+00
0.000000000000e+00
0.000000000000e+00
0.000000000000e+00
0.000000000000e+00
0.000000000000e+00
0.000000000000e+00
0.000000000000e+00
0.000000000000e+00
0.000000000000e+00
0.000000000000e+00
0.000000000000e+00
0.000000000000e+00
0.000000000000e+00
0.000000000000e+00
0.000000000000e+00
0.000000000000e+00
0.000000000000e+00
0.000000000000e+00
0.000000000000e+00
0.000000000000e+00
0.000000000000e+00
0.000000000000e+00
0.000000000000e+00
0.000000000000e+00
0.000000000000e+00
0.000000000000e+00
0.000000000000e+00
0.000000000000e+00
0.000000000000e+00
0.000000000000e+00
0.000000000000e+00
0.000000000000e+00
0.000000000000e+00
0.000000000000e+00
0.000000000000e+00
0.000000000000e+00
0.000000000000e+00
0.000000000000e+00
0.000000000000e+00
0.000000000000e+00
0.000000000000e+00
0.000000000000e+00
0.000000000000e+00
0.000000000000e+00
0.000000000000e+00
0.000000000000e+00
0.000000000000e+00
0.000000000000e+00
0.000000000000e+00
0.000000000000e+00
0.000000000000e+00
0.000000000000e+00
0.000000000000e+00
0.000000000000e+00
0.000000000000e+00
5.000000000144e-01
1.500000000043e+00
2.306581340858e+00
3.102818211739e+00
4.409321094218e+00
5.000000000000e+00
5.000000000000e+00
5.000000000000e+00
5.000000000000e+00
5.000000000000e+00
5.000000000000e+00
5.000000000000e+00
5.000000000000e+00
5.000000000000e+00
5.000000000000e+00
5.000000000000e+00
5.000000000000e+00
5.000000000000e+00
5.000000000000e+00
5.000000000000e+00
5.000000000000e+00
5.000000000000e+00
5.000000000000e+00
5.000000000000e+00
5.000000000000e+00
5.000000000000e+00
5.000000000000e+00
5.000000000000e+00
5.000000000000e+00
5.000000000000e+00
5.000000000000e+00
5.000000000000e+00
5.000000000000e+00
5.000000000000e+00
5.000000000000e+00
5.000000000000e+00
5.000000000000e+00
5.000000000000e+00
5.000000000000e+00
5.000000000000e+00
5.000000000000e+00
5.000000000000e+00
5.000000000000e+00
5.000000000000e+00
5.000000000000e+00
5.000000000000e+00
5.000000000000e+00
5.000000000000e+00
5.000000000000e+00
5.000000000000e+00
5.000000000000e+00
5.000000000000e+00
5.000000000000e+00
5.000000000000e+00
5.000000000000e+00
5.000000000000e+00
5.000000000000e+00
5.000000000000e+00
5.000000000000e+00
5.000000000000e+00
5.000000000000e+00
5.000000000000e+00
5.000000000000e+00
5.000000000000e+00
5.000000000000e+00
5.000000000000e+00
5.000000000000e+00
5.000000000000e+00
5.000000000000e+00
5.000000000000e+00
5.000000000000e+00
5.000000000000e+00
5.000000000000e+00
5.000000000000e+00
5.000000000000e+00
5.000000000000e+00
5.000000000000e+00
5.000000000000e+00
5.000000000000e+00
5.000000000000e+00
5.000000000000e+00
5.000000000000e+00
5.000000000000e+00
5.000000000000e+00
5.000000000000e+00
5.000000000000e+00
5.000000000000e+00
5.000000000000e+00
5.000000000000e+00
5.000000000000e+00
5.000000000000e+00
5.000000000000e+00
5.000000000000e+00
5.000000000000e+00
5.000000000000e+00
5.000000000000e+00
5.000000000000e+00
5.000000000000e+00
5.000000000000e+00
5.000000000000e+00
5.000000000000e+00
5.000000000000e+00
5.000000000000e+00
5.000000000000e+00
5.000000000000e+00
5.000000000000e+00
5.000000000000e+00
5.000000000000e+00
5.000000000000e+00
5.000000000000e+00
5.000000000000e+00
5.000000000000e+00
5.000000000000e+00
5.000000000000e+00
5.000000000000e+00
5.000000000000e+00
5.000000000000e+00
5.000000000000e+00
5.000000000000e+00
5.000000000000e+00
5.000000000000e+00
5.000000000000e+00
5.000000000000e+00
5.000000000000e+00
5.000000000000e+00
4.499999999986e+00
3.499999999957e+00
1.499999999899e+00
1.337774335752e-10
0.000000000000e+00
0.000000000000e+00
0.000000000000e+00
0.000000000000e+00
0.000000000000e+00
0.000000000000e+00
0.000000000000e+00
0.000000000000e+00
0.000000000000e+00
0.000000000000e+00
0.000000000000e+00
0.000000000000e+00
0.000000000000e+00
0.000000000000e+00
0.000000000000e+00
0.000000000000e+00
0.000000000000e+00
0.000000000000e+00
0.000000000000e+00
0.000000000000e+00
0.000000000000e+00
0.000000000000e+00
0.000000000000e+00
0.000000000000e+00
0.000000000000e+00
0.000000000000e+00
0.000000000000e+00
0.000000000000e+00
0.000000000000e+00
0.000000000000e+00
0.000000000000e+00
0.000000000000e+00
0.000000000000e+00
0.000000000000e+00
0.000000000000e+00
0.000000000000e+00
0.000000000000e+00
0.000000000000e+00
0.000000000000e+00
0.000000000000e+00
0.000000000000e+00
0.000000000000e+00
0.000000000000e+00
0.000000000000e+00
0.000000000000e+00
0.000000000000e+00
0.000000000000e+00
0.000000000000e+00
0.000000000000e+00
0.000000000000e+00
0.000000000000e+00
0.000000000000e+00
0.000000000000e+00
0.000000000000e+00
0.000000000000e+00
0.000000000000e+00
0.000000000000e+00
0.000000000000e+00
0.000000000000e+00
0.000000000000e+00
0.000000000000e+00
0.000000000000e+00
0.000000000000e+00
0.000000000000e+00
0.000000000000e+00
0.000000000000e+00
0.000000000000e+00
0.000000000000e+00
0.000000000000e+00
0.000000000000e+00
0.000000000000e+00
0.000000000000e+00
0.000000000000e+00
0.000000000000e+00
0.000000000000e+00
0.000000000000e+00
0.000000000000e+00
0.000000000000e+00
0.000000000000e+00
0.000000000000e+00
0.000000000000e+00
0.000000000000e+00
0.000000000000e+00
0.000000000000e+00
0.000000000000e+00
0.000000000000e+00
0.000000000000e+00
0.000000000000e+00
0.000000000000e+00
0.000000000000e+00
0.000000000000e+00
0.000000000000e+00
0.000000000000e+00
0.000000000000e+00
0.000000000000e+00
0.000000000000e+00
0.000000000000e+00
0.000000000000e+00
0.000000000000e+00
0.000000000000e+00
0.000000000000e+00
0.000000000000e+00
0.000000000000e+00
0.000000000000e+00
0.000000000000e+00
0.000000000000e+00
0.000000000000e+00
0.000000000000e+00
0.000000000000e+00
0.000000000000e+00
0.000000000000e+00
0.000000000000e+00
0.000000000000e+00
0.000000000000e+00
0.000000000000e+00
0.000000000000e+00
0.000000000000e+00
0.000000000000e+00
</dep>
<dep tran.v(vcc) time>
5.000000000000e+00
5.000000000000e+00
5.000000000000e+00
5.000000000000e+00
5.000000000000e+00
5.000000000000e+00
5.000000000000e+00
5.000000000000e+00
5.000000000000e+00
5.000000000000e+00
5.000000000000e+00
5.000000000000e+00
5.000000000000e+00
5.000000000000e+00
5.000000000000e+00
5.000000000000e+00
5.000000000000e+00
5.000000000000e+00
5.000000000000e+00
5.000000000000e+00
5.000000000000e+00
5.000000000000e+00
5.000000000000e+00
5.000000000000e+00
5.000000000000e+00
5.000000000000e+00
5.000000000000e+00
5.000000000000e+00
5.000000000000e+00
5.000000000000e+00
5.000000000000e+00
5.000000000000e+00
5.000000000000e+00
5.000000000000e+00
5.000000000000e+00
5.000000000000e+00
5.000000000000e+00
5.000000000000e+00
5.000000000000e+00
5.000000000000e+00
5.000000000000e+00
5.000000000000e+00
5.000000000000e+00
5.000000000000e+00
5.000000000000e+00
5.000000000000e+00
5.000000000000e+00
5.000000000000e+00
5.000000000000e+00
5.000000000000e+00
5.000000000000e+00
5.000000000000e+00
5.000000000000e+00
5.000000000000e+00
5.000000000000e+00
5.000000000000e+00
5.000000000000e+00
5.000000000000e+00
5.000000000000e+00
5.000000000000e+00
5.000000000000e+00
5.000000000000e+00
5.000000000000e+00
5.000000000000e+00
5.000000000000e+00
5.000000000000e+00
5.000000000000e+00
5.000000000000e+00
5.000000000000e+00
5.000000000000e+00
5.000000000000e+00
5.000000000000e+00
5.000000000000e+00
5.000000000000e+00
5.000000000000e+00
5.000000000000e+00
5.000000000000e+00
5.000000000000e+00
5.000000000000e+00
5.000000000000e+00
5.000000000000e+00
5.000000000000e+00
5.000000000000e+00
5.000000000000e+00
5.000000000000e+00
5.000000000000e+00
5.000000000000e+00
5.000000000000e+00
5.000000000000e+00
5.000000000000e+00
5.000000000000e+00
5.000000000000e+00
5.000000000000e+00
5.000000000000e+00
5.000000000000e+00
5.000000000000e+00
5.000000000000e+00
5.000000000000e+00
5.000000000000e+00
5.000000000000e+00
