<Qucs Dataset 26.1.1>
<indep time 312>
0.000000000000e+00
1.000000000000e-08
2.000000000000e-08
4.000000000000e-08
8.000000000000e-08
1.600000000000e-07
2.387477112043e-07
3.326395285853e-07
4.243196727873e-07
6.076799611913e-07
9.744005379993e-07
1.000000000000e-06
1.025351523743e-06
1.076054571228e-06
1.177460666199e-06
1.380272856141e-06
1.785897236026e-06
2.597145995794e-06
4.219643515331e-06
7.464638554405e-06
1.395462863255e-05
2.693460878885e-05
5.289456910144e-05
1.048144897266e-04
2.086543309770e-04
4.163340134777e-04
8.316933784791e-04
1.662412108482e-03
3.323849568488e-03
5.836409568488e-03
8.348969568488e-03
1.086152956849e-02
1.337408956849e-02
1.588664956849e-02
1.839920956849e-02
2.091176956849e-02
2.342432956849e-02
2.593688956849e-02
2.844944956849e-02
3.096200956849e-02
3.347456956849e-02
3.598712956849e-02
3.849968956849e-02
4.101224956849e-02
4.352480956849e-02
4.603736956849e-02
4.854992956849e-02
5.106248956849e-02
5.357504956849e-02
5.608760956849e-02
5.860016956849e-02
6.111272956849e-02
6.362528956849e-02
6.613784956849e-02
6.865040956849e-02
7.116296956849e-02
7.367552956849e-02
7.618808956849e-02
7.870064956849e-02
8.121320956849e-02
8.372576956849e-02
8.623832956849e-02
8.875088956849e-02
9.126344956849e-02
9.377600956849e-02
9.628856956849e-02
9.880112956849e-02
1.000000000000e-01
1.000001000000e-01
1.000003000000e-01
1.000007000000e-01
1.000010000000e-01
1.000010138561e-01
1.000010415683e-01
1.000010969927e-01
1.000011724501e-01
1.000013233648e-01
1.000016251941e-01
1.000022288528e-01
1.000034361701e-01
1.000058508048e-01
1.000106800742e-01
1.000203386129e-01
1.000396556904e-01
1.000782898454e-01
1.001555581553e-01
1.003100947752e-01
1.006191680150e-01
1.012373144945e-01
1.024736074536e-01
1.049461933718e-01
1.074587533718e-01
1.099713133718e-01
1.124838733718e-01
1.149964333718e-01
1.175089933718e-01
1.200215533718e-01
1.225341133718e-01
1.250466733718e-01
1.275592333718e-01
1.300717933718e-01
1.325843533718e-01
1.350969133718e-01
1.376094733718e-01
1.401220333718e-01
1.426345933718e-01
1.451471533718e-01
1.476597133718e-01
1.501722733718e-01
1.526848333718e-01
1.551973933718e-01
1.577099533718e-01
1.602225133718e-01
1.627350733718e-01
1.652476333718e-01
1.677601933718e-01
1.702727533718e-01
1.727853133718e-01
1.752978733718e-01
1.778104333718e-01
1.803229933718e-01
1.828355533718e-01
1.853481133718e-01
1.878606733718e-01
1.903732333718e-01
1.928857933718e-01
1.953983533718e-01
1.979109133718e-01
2.000010000000e-01
2.000011000000e-01
2.000013000000e-01
2.000014301374e-01
2.000015781103e-01
2.000018740560e-01
2.000020000000e-01
2.000020523006e-01
2.000021569019e-01
2.000023661044e-01
2.000027845093e-01
2.000036213193e-01
2.000052949392e-01
2.000086421790e-01
2.000153366587e-01
2.000287256180e-01
2.000555035365e-01
2.001090593737e-01
2.002161710480e-01
2.004303943965e-01
2.008588410937e-01
2.017157344880e-01
2.034295212767e-01
2.059420812767e-01
2.084546412767e-01
2.109672012767e-01
2.134797612767e-01
2.159923212767e-01
2.185048812767e-01
2.210174412767e-01
2.235300012767e-01
2.260425612767e-01
2.285551212767e-01
2.310676812767e-01
2.335802412767e-01
2.360928012767e-01
2.386053612767e-01
2.411179212767e-01
2.436304812767e-01
2.461430412767e-01
2.486556012767e-01
2.511681612767e-01
2.536807212767e-01
2.561932812767e-01
2.587058412767e-01
2.612184012767e-01
2.637309612767e-01
2.662435212767e-01
2.687560812767e-01
2.712686412767e-01
2.737812012767e-01
2.762937612767e-01
2.788063212767e-01
2.813188812767e-01
2.838314412767e-01
2.863440012767e-01
2.888565612767e-01
2.913691212767e-01
2.938816812767e-01
2.963942412767e-01
2.989068012767e-01
3.000010000000e-01
3.000011000000e-01
3.000013000000e-01
3.000017000000e-01
3.000020000000e-01
3.000020135527e-01
3.000020406581e-01
3.000020948689e-01
3.000022032905e-01
3.000024201336e-01
3.000028538199e-01
3.000037211925e-01
3.000054559377e-01
3.000089254280e-01
3.000158644087e-01
3.000297423702e-01
3.000574982931e-01
3.001130101388e-01
3.002240338303e-01
3.004460812133e-01
3.008901759794e-01
3.017783655114e-01
3.035547445755e-01
3.060673045755e-01
3.085798645755e-01
3.110924245755e-01
3.136049845755e-01
3.161175445755e-01
3.186301045755e-01
3.211426645755e-01
3.236552245755e-01
3.261677845755e-01
3.286803445755e-01
3.311929045755e-01
3.337054645755e-01
3.362180245755e-01
3.387305845755e-01
3.412431445755e-01
3.437557045755e-01
3.462682645755e-01
3.487808245755e-01
3.512933845755e-01
3.538059445755e-01
3.563185045755e-01
3.588310645755e-01
3.613436245755e-01
3.638561845755e-01
3.663687445755e-01
3.688813045755e-01
3.713938645755e-01
3.739064245755e-01
3.764189845755e-01
3.789315445755e-01
3.814441045755e-01
3.839566645755e-01
3.864692245755e-01
3.889817845755e-01
3.914943445755e-01
3.940069045755e-01
3.965194645755e-01
3.990320245755e-01
4.000020000000e-01
4.000021000000e-01
4.000023000000e-01
4.000024200994e-01
4.000025831300e-01
4.000028148962e-01
4.000030000000e-01
4.000030463532e-01
4.000031390597e-01
4.000033244727e-01
4.000036952986e-01
4.000044369504e-01
4.000059202541e-01
4.000088868614e-01
4.000148200760e-01
4.000266865053e-01
4.000504193639e-01
4.000978850810e-01
4.001928165152e-01
4.003826793837e-01
4.007624051206e-01
4.015218565944e-01
4.030407595420e-01
4.055533195420e-01
4.080658795420e-01
4.105784395420e-01
4.130909995420e-01
4.156035595420e-01
4.181161195420e-01
4.206286795420e-01
4.231412395420e-01
4.256537995420e-01
4.281663595420e-01
4.306789195420e-01
4.331914795420e-01
4.357040395420e-01
4.382165995420e-01
4.407291595420e-01
4.432417195420e-01
4.457542795420e-01
4.482668395420e-01
4.507793995420e-01
4.532919595420e-01
4.558045195420e-01
4.583170795420e-01
4.608296395420e-01
4.633421995420e-01
4.658547595420e-01
4.683673195420e-01
4.708798795420e-01
4.733924395420e-01
4.759049995420e-01
4.784175595420e-01
4.809301195420e-01
4.834426795420e-01
4.859552395420e-01
4.884677995420e-01
4.909803595420e-01
4.934929195420e-01
4.960054795420e-01
4.985180395420e-01
5.000000000000e-01
</indep>
<dep tran.v(a) time>
0.000000000000e+00
5.000000000000e-02
1.000000000000e-01
2.000000000000e-01
4.000000000000e-01
8.000000000000e-01
1.193738556022e+00
1.663197642926e+00
2.121598363936e+00
3.038399805956e+00
4.872002689996e+00
5.000000000000e+00
5.000000000000e+00
5.000000000000e+00
5.000000000000e+00
5.000000000000e+00
5.000000000000e+00
5.000000000000e+00
5.000000000000e+00
5.000000000000e+00
5.000000000000e+00
5.000000000000e+00
5.000000000000e+00
5.000000000000e+00
5.000000000000e+00
5.000000000000e+00
5.000000000000e+00
5.000000000000e+00
5.000000000000e+00
5.000000000000e+00
5.000000000000e+00
5.000000000000e+00
5.000000000000e+00
5.000000000000e+00
5.000000000000e+00
5.000000000000e+00
5.000000000000e+00
5.000000000000e+00
5.000000000000e+00
5.000000000000e+00
5.000000000000e+00
5.000000000000e+00
5.000000000000e+00
5.000000000000e+00
5.000000000000e+00
5.000000000000e+00
5.000000000000e+00
5.000000000000e+00
5.000000000000e+00
5.000000000000e+00
5.000000000000e+00
5.000000000000e+00
5.000000000000e+00
5.000000000000e+00
5.000000000000e+00
5.000000000000e+00
5.000000000000e+00
5.000000000000e+00
5.000000000000e+00
5.000000000000e+00
5.000000000000e+00
5.000000000000e+00
5.000000000000e+00
5.000000000000e+00
5.000000000000e+00
5.000000000000e+00
5.000000000000e+00
5.000000000000e+00
5.000000000000e+00
5.000000000000e+00
5.000000000000e+00
5.000000000000e+00
5.000000000000e+00
5.000000000000e+00
5.000000000000e+00
5.000000000000e+00
5.000000000000e+00
5.000000000000e+00
5.000000000000e+00
5.000000000000e+00
5.000000000000e+00
5.000000000000e+00
5.000000000000e+00
5.000000000000e+00
5.000000000000e+00
5.000000000000e+00
5.000000000000e+00
5.000000000000e+00
5.000000000000e+00
5.000000000000e+00
5.000000000000e+00
5.000000000000e+00
5.000000000000e+00
5.000000000000e+00
5.000000000000e+00
5.000000000000e+00
5.000000000000e+00
5.000000000000e+00
5.000000000000e+00
5.000000000000e+00
5.000000000000e+00
5.000000000000e+00
5.000000000000e+00
5.000000000000e+00
5.000000000000e+00
5.000000000000e+00
5.000000000000e+00
5.000000000000e+00
5.000000000000e+00
5.000000000000e+00
5.000000000000e+00
5.000000000000e+00
5.000000000000e+00
5.000000000000e+00
5.000000000000e+00
5.000000000000e+00
5.000000000000e+00
5.000000000000e+00
5.000000000000e+00
5.000000000000e+00
5.000000000000e+00
5.000000000000e+00
5.000000000000e+00
5.000000000000e+00
5.000000000000e+00
5.000000000000e+00
5.000000000000e+00
5.000000000000e+00
5.000000000000e+00
4.499999999986e+00
3.499999999957e+00
2.849312812631e+00
2.109448540561e+00
6.297199964206e-01
0.000000000000e+00
0.000000000000e+00
0.000000000000e+00
0.000000000000e+00
0.000000000000e+00
0.000000000000e+00
0.000000000000e+00
0.000000000000e+00
0.000000000000e+00
0.000000000000e+00
0.000000000000e+00
0.000000000000e+00
0.000000000000e+00
0.000000000000e+00
0.000000000000e+00
0.000000000000e+00
0.000000000000e+00
0.000000000000e+00
0.000000000000e+00
0.000000000000e+00
0.000000000000e+00
0.000000000000e+00
0.000000000000e+00
0.000000000000e+00
0.000000000000e+00
0.000000000000e+00
0.000000000000e+00
0.000000000000e+00
0.000000000000e+00
0.000000000000e+00
0.000000000000e+00
0.000000000000e+00
0.000000000000e+00
0.000000000000e+00
0.000000000000e+00
0.000000000000e+00
0.000000000000e+00
0.000000000000e+00
0.000000000000e+00
0.000000000000e+00
0.000000000000e+00
0.000000000000e+00
0.000000000000e+00
0.000000000000e+00
0.000000000000e+00
0.000000000000e+00
0.000000000000e+00
0.000000000000e+00
0.000000000000e+00
0.000000000000e+00
0.000000000000e+00
0.000000000000e+00
0.000000000000e+00
0.000000000000e+00
0.000000000000e+00
0.000000000000e+00
0.000000000000e+00
0.000000000000e+00
0.000000000000e+00
0.000000000000e+00
0.000000000000e+00
0.000000000000e+00
0.000000000000e+00
0.000000000000e+00
0.000000000000e+00
0.000000000000e+00
0.000000000000e+00
0.000000000000e+00
0.000000000000e+00
0.000000000000e+00
0.000000000000e+00
0.000000000000e+00
0.000000000000e+00
0.000000000000e+00
0.000000000000e+00
0.000000000000e+00
0.000000000000e+00
0.000000000000e+00
0.000000000000e+00
0.000000000000e+00
0.000000000000e+00
0.000000000000e+00
0.000000000000e+00
0.000000000000e+00
0.000000000000e+00
0.000000000000e+00
0.000000000000e+00
0.000000000000e+00
0.000000000000e+00
0.000000000000e+00
0.000000000000e+00
0.000000000000e+00
0.000000000000e+00
0.000000000000e+00
0.000000000000e+00
0.000000000000e+00
0.000000000000e+00
0.000000000000e+00
0.000000000000e+00
0.000000000000e+00
0.000000000000e+00
0.000000000000e+00
0.000000000000e+00
0.000000000000e+00
0.000000000000e+00
0.000000000000e+00
0.000000000000e+00
0.000000000000e+00
0.000000000000e+00
0.000000000000e+00
0.000000000000e+00
0.000000000000e+00
0.000000000000e+00
0.000000000000e+00
0.000000000000e+00
0.000000000000e+00
0.000000000000e+00
5.000000000144e-01
1.500000000043e+00
2.100497247803e+00
2.915649777169e+00
4.074480761396e+00
4.999999999866e+00
5.000000000000e+00
5.000000000000e+00
5.000000000000e+00
5.000000000000e+00
5.000000000000e+00
5.000000000000e+00
5.000000000000e+00
5.000000000000e+00
5.000000000000e+00
5.000000000000e+00
5.000000000000e+00
5.000000000000e+00
5.000000000000e+00
5.000000000000e+00
5.000000000000e+00
5.000000000000e+00
5.000000000000e+00
5.000000000000e+00
5.000000000000e+00
5.000000000000e+00
5.000000000000e+00
5.000000000000e+00
5.000000000000e+00
5.000000000000e+00
5.000000000000e+00
5.000000000000e+00
5.000000000000e+00
5.000000000000e+00
5.000000000000e+00
5.000000000000e+00
5.000000000000e+00
5.000000000000e+00
5.000000000000e+00
5.000000000000e+00
5.000000000000e+00
5.000000000000e+00
5.000000000000e+00
5.000000000000e+00
5.000000000000e+00
5.000000000000e+00
5.000000000000e+00
5.000000000000e+00
5.000000000000e+00
5.000000000000e+00
5.000000000000e+00
5.000000000000e+00
5.000000000000e+00
5.000000000000e+00
5.000000000000e+00
5.000000000000e+00
5.000000000000e+00
5.000000000000e+00
5.000000000000e+00
5.000000000000e+00
5.000000000000e+00
</dep>
<dep tran.v(b) time>
0.000000000000e+00
0.000000000000e+00
0.000000000000e+00
0.000000000000e+00
0.000000000000e+00
0.000000000000e+00
0.000000000000e+00
0.000000000000e+00
0.000000000000e+00
0.000000000000e+00
0.000000000000e+00
0.000000000000e+00
0.000000000000e+00
0.000000000000e+00
0.000000000000e+00
0.000000000000e+00
0.000000000000e+00
0.000000000000e+00
0.000000000000e+00
0.000000000000e+00
0.000000000000e+00
0.000000000000e+00
0.000000000000e+00
0.000000000000e+00
0.000000000000e+00
0.000000000000e+00
0.000000000000e+00
0.000000000000e+00
0.000000000000e+00
0.000000000000e+00
0.000000000000e+00
0.000000000000e+00
0.000000000000e+00
0.000000000000e+00
0.000000000000e+00
0.000000000000e+00
0.000000000000e+00
0.000000000000e+00
0.000000000000e+00
0.000000000000e+00
0.000000000000e+00
0.000000000000e+00
0.000000000000e+00
0.000000000000e+00
0.000000000000e+00
0.000000000000e+00
0.000000000000e+00
0.000000000000e+00
0.000000000000e+00
0.000000000000e+00
0.000000000000e+00
0.000000000000e+00
0.000000000000e+00
0.000000000000e+00
0.000000000000e+00
0.000000000000e+00
0.000000000000e+00
0.000000000000e+00
0.000000000000e+00
0.000000000000e+00
0.000000000000e+00
0.000000000000e+00
0.000000000000e+00
0.000000000000e+00
0.000000000000e+00
0.000000000000e+00
0.000000000000e+00
0.000000000000e+00
5.000000000144e-01
1.500000000043e+00
3.500000000031e+00
5.000000000000e+00
5.000000000000e+00
5.000000000000e+00
5.000000000000e+00
5.000000000000e+00
5.000000000000e+00
5.000000000000e+00
5.000000000000e+00
5.000000000000e+00
5.000000000000e+00
5.000000000000e+00
5.000000000000e+00
5.000000000000e+00
5.000000000000e+00
5.000000000000e+00
5.000000000000e+00
5.000000000000e+00
5.000000000000e+00
5.000000000000e+00
5.000000000000e+00
5.000000000000e+00
5.000000000000e+00
5.000000000000e+00
5.000000000000e+00
5.000000000000e+00
5.000000000000e+00
5.000000000000e+00
5.000000000000e+00
5.000000000000e+00
5.000000000000e+00
5.000000000000e+00
5.000000000000e+00
5.000000000000e+00
5.000000000000e+00
5.000000000000e+00
5.000000000000e+00
5.000000000000e+00
5.000000000000e+00
5.000000000000e+00
5.000000000000e+00
5.000000000000e+00
5.000000000000e+00
5.000000000000e+00
5.000000000000e+00
5.000000000000e+00
5.000000000000e+00
5.000000000000e+00
5.000000000000e+00
5.000000000000e+00
5.000000000000e+00
5.000000000000e+00
5.000000000000e+00
5.000000000000e+00
5.000000000000e+00
5.000000000000e+00
5.000000000000e+00
5.000000000000e+00
5.000000000000e+00
5.000000000000e+00
5.000000000000e+00
5.000000000000e+00
5.000000000000e+00
5.000000000000e+00
5.000000000000e+00
5.000000000000e+00
5.000000000000e+00
5.000000000000e+00
5.000000000000e+00
5.000000000000e+00
5.000000000000e+00
5.000000000000e+00
5.000000000000e+00
5.000000000000e+00
5.000000000000e+00
5.000000000000e+00
5.000000000000e+00
5.000000000000e+00
5.000000000000e+00
5.000000000000e+00
5.000000000000e+00
5.000000000000e+00
5.000000000000e+00
5.000000000000e+00
5.000000000000e+00
5.000000000000e+00
5.000000000000e+00
5.000000000000e+00
5.000000000000e+00
5.000000000000e+00
5.000000000000e+00
5.000000000000e+00
5.000000000000e+00
5.000000000000e+00
5.000000000000e+00
5.000000000000e+00
5.000000000000e+00
5.000000000000e+00
5.000000000000e+00
5.000000000000e+00
5.000000000000e+00
5.000000000000e+00
5.000000000000e+00
5.000000000000e+00
5.000000000000e+00
5.000000000000e+00
5.000000000000e+00
5.000000000000e+00
5.000000000000e+00
5.000000000000e+00
5.000000000000e+00
5.000000000000e+00
5.000000000000e+00
5.000000000000e+00
5.000000000000e+00
5.000000000000e+00
5.000000000000e+00
5.000000000000e+00
5.000000000000e+00
5.000000000000e+00
4.499999999986e+00
3.499999999957e+00
1.499999999899e+00
1.337774335752e-10
0.000000000000e+00
0.000000000000e+00
0.000000000000e+00
0.000000000000e+00
0.000000000000e+00
0.000000000000e+00
0.000000000000e+00
0.000000000000e+00
0.000000000000e+00
0.000000000000e+00
0.000000000000e+00
0.000000000000e+00
0.000000000000e+00
0.000000000000e+00
0.000000000000e+00
0.000000000000e+00
0.000000000000e+00
0.000000000000e+00
0.000000000000e+00
0.000000000000e+00
0.000000000000e+00
0.000000000000e+00
0.000000000000e+00
0.000000000000e+00
0.000000000000e+00
0.000000000000e+00
0.000000000000e+00
0.000000000000e+00
0.000000000000e+00
0.000000000000e+00
0.000000000000e+00
0.000000000000e+00
0.000000000000e+00
0.000000000000e+00
0.000000000000e+00
0.000000000000e+00
0.000000000000e+00
0.000000000000e+00
0.000000000000e+00
0.000000000000e+00
0.000000000000e+00
0.000000000000e+00
0.000000000000e+00
0.000000000000e+00
0.000000000000e+00
0.000000000000e+00
0.000000000000e+00
0.000000000000e+00
0.000000000000e+00
0.000000000000e+00
0.000000000000e+00
0.000000000000e+00
0.000000000000e+00
0.000000000000e+00
0.000000000000e+00
0.000000000000e+00
0.000000000000e+00
0.000000000000e+00
0.000000000000e+00
0.000000000000e+00
0.000000000000e+00
0.000000000000e+00
0.000000000000e+00
0.000000000000e+00
0.000000000000e+00
0.000000000000e+00
0.000000000000e+00
0.000000000000e+00
0.000000000000e+00
0.000000000000e+00
0.000000000000e+00
0.000000000000e+00
0.000000000000e+00
0.000000000000e+00
0.000000000000e+00
0.000000000000e+00
0.000000000000e+00
0.000000000000e+00
0.000000000000e+00
0.000000000000e+00
0.000000000000e+00
0.000000000000e+00
0.000000000000e+00
0.000000000000e+00
0.000000000000e+00
0.000000000000e+00
0.000000000000e+00
0.000000000000e+00
0.000000000000e+00
0.000000000000e+00
0.000000000000e+00
0.000000000000e+00
0.000000000000e+00
0.000000000000e+00
0.000000000000e+00
0.000000000000e+00
0.000000000000e+00
0.000000000000e+00
0.000000000000e+00
0.000000000000e+00
0.000000000000e+00
0.000000000000e+00
0.000000000000e+00
0.000000000000e+00
0.000000000000e+00
0.000000000000e+00
0.000000000000e+00
0.000000000000e+00
0.000000000000e+00
0.000000000000e+00
0.000000000000e+00
0.000000000000e+00
0.000000000000e+00
0.000000000000e+00
0.000000000000e+00
0.000000000000e+00
0.000000000000e+00
0.000000000000e+00
</dep>
<dep tran.v(vcc) time>
5.000000000000e+00
5.000000000000e+00
5.000000000000e+00
5.000000000000e+00
5.000000000000e+00
5.000000000000e+00
5.000000000000e+00
5.000000000000e+00
5.000000000000e+00
5.000000000000e+00
5.000000000000e+00
5.000000000000e+00
5.000000000000e+00
5.000000000000e+00
5.000000000000e+00
5.000000000000e+00
5.000000000000e+00
5.000000000000e+00
5.000000000000e+00
5.000000000000e+00
5.000000000000e+00
5.000000000000e+00
5.000000000000e+00
5.000000000000e+00
5.000000000000e+00
5.000000000000e+00
5.000000000000e+00
5.000000000000e+00
5.000000000000e+00
5.000000000000e+00
5.000000000000e+00
5.000000000000e+00
5.000000000000e+00
5.000000000000e+00
5.000000000000e+00
5.000000000000e+00
5.000000000000e+00
5.000000000000e+00
5.000000000000e+00
5.000000000000e+00
5.000000000000e+00
5.000000000000e+00
5.000000000000e+00
5.000000000000e+00
5.000000000000e+00
5.000000000000e+00
5.000000000000e+00
5.000000000000e+00
5.000000000000e+00
5.000000000000e+00
5.000000000000e+00
5.000000000000e+00
5.000000000000e+00
5.000000000000e+00
5.000000000000e+00
5.000000000000e+00
5.000000000000e+00
5.000000000000e+00
5.000000000000e+00
5.000000000000e+00
5.000000000000e+00
5.000000000000e+00
5.000000000000e+00
5.000000000000e+00
5.000000000000e+00
5.000000000000e+00
5.000000000000e+00
5.000000000000e+00
5.000000000000e+00
5.000000000000e+00
5.000000000000e+00
5.000000000000e+00
5.000000000000e+00
5.000000000000e+00
5.000000000000e+00
5.000000000000e+00
5.000000000000e+00
5.000000000000e+00
5.000000000000e+00
5.000000000000e+00
5.000000000000e+00
5.000000000000e+00
5.000000000000e+00
5.000000000000e+00
5.000000000000e+00
5.000000000000e+00
5.000000000000e+00
5.000000000000e+00
5.000000000000e+00
5.000000000000e+00
5.000000000000e+00
5.000000000000e+00
5.000000000000e+00
5.000000000000e+00
5.000000000000e+00
5.000000000000e+00
5.000000000000e+00
5.000000000000e+00
5.000000000000e+00
5.000000000000e+00
5.000000000000e+00
5.000000000000e+00
5.000000000000e+00
5.000000000000e+00
5.000000000000e+00
5.000000000000e+00
5.000000000000e+00
5.000000000000e+00
5.000000000000e+00
