<Qucs Dataset 26.1.1>
<indep time 315>
0.000000000000e+00
1.000000000000e-08
2.000000000000e-08
4.000000000000e-08
8.000000000000e-08
1.600000000000e-07
2.387477112043e-07
3.326395285853e-07
4.243196727873e-07
6.076799611913e-07
8.038399805956e-07
1.000000000000e-06
1.039232003881e-06
1.117696011643e-06
1.274624027166e-06
1.588480058213e-06
2.216192120307e-06
3.471616244495e-06
5.982464492871e-06
1.100416098962e-05
2.104755398313e-05
4.113433997013e-05
8.130791194415e-05
1.616550558922e-04
3.223493437882e-04
6.437379195804e-04
1.286515071165e-03
2.572069374333e-03
5.084629374333e-03
7.597189374333e-03
1.010974937433e-02
1.262230937433e-02
1.513486937433e-02
1.764742937433e-02
2.015998937433e-02
2.267254937433e-02
2.518510937433e-02
2.769766937433e-02
3.021022937433e-02
3.272278937433e-02
3.523534937433e-02
3.774790937433e-02
4.026046937433e-02
4.277302937433e-02
4.528558937433e-02
4.779814937433e-02
5.031070937433e-02
5.282326937433e-02
5.533582937433e-02
5.784838937433e-02
6.036094937433e-02
6.287350937433e-02
6.538606937433e-02
6.789862937433e-02
7.041118937433e-02
7.292374937433e-02
7.543630937433e-02
7.794886937433e-02
8.046142937433e-02
8.297398937433e-02
8.548654937433e-02
8.799910937433e-02
9.051166937433e-02
9.302422937433e-02
9.553678937433e-02
9.776839468717e-02
1.000000000000e-01
1.000001000000e-01
1.000003000000e-01
1.000004619682e-01
1.000006166703e-01
1.000008083352e-01
1.000010000000e-01
1.000010137019e-01
1.000010411056e-01
1.000010959130e-01
1.000011911004e-01
1.000013814752e-01
1.000017622248e-01
1.000025237240e-01
1.000040467225e-01
1.000070927195e-01
1.000131847134e-01
1.000253687013e-01
1.000497366770e-01
1.000984726285e-01
1.001959445314e-01
1.003908883373e-01
1.007807759491e-01
1.015605511725e-01
1.031201016195e-01
1.056326616195e-01
1.081452216195e-01
1.106577816195e-01
1.131703416195e-01
1.156829016195e-01
1.181954616195e-01
1.207080216195e-01
1.232205816195e-01
1.257331416195e-01
1.282457016195e-01
1.307582616195e-01
1.332708216195e-01
1.357833816195e-01
1.382959416195e-01
1.408085016195e-01
1.433210616195e-01
1.458336216195e-01
1.483461816195e-01
1.508587416195e-01
1.533713016195e-01
1.558838616195e-01
1.583964216195e-01
1.609089816195e-01
1.634215416195e-01
1.659341016195e-01
1.684466616195e-01
1.709592216195e-01
1.734717816195e-01
1.759843416195e-01
1.784969016195e-01
1.810094616195e-01
1.835220216195e-01
1.860345816195e-01
1.885471416195e-01
1.910597016195e-01
1.935722616195e-01
1.960848216195e-01
1.980429108098e-01
2.000010000000e-01
2.000011000000e-01
2.000013000000e-01
2.000014694700e-01
2.000016433847e-01
2.000018216924e-01
2.000020000000e-01
2.000020169692e-01
2.000020509077e-01
2.000021187847e-01
2.000022545387e-01
2.000025260466e-01
2.000030690625e-01
2.000041550943e-01
2.000063271578e-01
2.000106712849e-01
2.000193595390e-01
2.000367360472e-01
2.000714890637e-01
2.001409950967e-01
2.002800071626e-01
2.005580312945e-01
2.011140795582e-01
2.022261760857e-01
2.044503691407e-01
2.069629291407e-01
2.094754891407e-01
2.119880491407e-01
2.145006091407e-01
2.170131691407e-01
2.195257291407e-01
2.220382891407e-01
2.245508491407e-01
2.270634091407e-01
2.295759691407e-01
2.320885291407e-01
2.346010891407e-01
2.371136491407e-01
2.396262091407e-01
2.421387691407e-01
2.446513291407e-01
2.471638891407e-01
2.496764491407e-01
2.521890091407e-01
2.547015691407e-01
2.572141291407e-01
2.597266891407e-01
2.622392491407e-01
2.647518091407e-01
2.672643691407e-01
2.697769291407e-01
2.722894891407e-01
2.748020491407e-01
2.773146091407e-01
2.798271691407e-01
2.823397291407e-01
2.848522891407e-01
2.873648491407e-01
2.898774091407e-01
2.923899691407e-01
2.949025291407e-01
2.974150891407e-01
2.987080445703e-01
3.000010000000e-01
3.000011000000e-01
3.000013000000e-01
3.000016500000e-01
3.000020000000e-01
3.000020164690e-01
3.000020494070e-01
3.000021152829e-01
3.000022470348e-01
3.000025105386e-01
3.000030375462e-01
3.000040915615e-01
3.000061995919e-01
3.000104156529e-01
3.000188477747e-01
3.000357120185e-01
3.000694405059e-01
3.001368974808e-01
3.002718114305e-01
3.005416393300e-01
3.010812951291e-01
3.021606067271e-01
3.043192299232e-01
3.068317899232e-01
3.093443499232e-01
3.118569099232e-01
3.143694699232e-01
3.168820299232e-01
3.193945899232e-01
3.219071499232e-01
3.244197099232e-01
3.269322699232e-01
3.294448299232e-01
3.319573899232e-01
3.344699499232e-01
3.369825099232e-01
3.394950699232e-01
3.420076299232e-01
3.445201899232e-01
3.470327499232e-01
3.495453099232e-01
3.520578699232e-01
3.545704299232e-01
3.570829899232e-01
3.595955499232e-01
3.621081099232e-01
3.646206699232e-01
3.671332299232e-01
3.696457899232e-01
3.721583499232e-01
3.746709099232e-01
3.771834699232e-01
3.796960299232e-01
3.822085899232e-01
3.847211499232e-01
3.872337099232e-01
3.897462699232e-01
3.922588299232e-01
3.947713899232e-01
3.972839499232e-01
3.986429749616e-01
4.000020000000e-01
4.000021000000e-01
4.000023000000e-01
4.000024230442e-01
4.000025852452e-01
4.000027926226e-01
4.000030000000e-01
4.000030414755e-01
4.000031244264e-01
4.000032903283e-01
4.000036221322e-01
4.000042857398e-01
4.000056129550e-01
4.000082673856e-01
4.000135762466e-01
4.000241939687e-01
4.000454294129e-01
4.000879003013e-01
4.001728420782e-01
4.003427256318e-01
4.006824927391e-01
4.013620269537e-01
4.027210953828e-01
4.052336553828e-01
4.077462153828e-01
4.102587753828e-01
4.127713353828e-01
4.152838953828e-01
4.177964553828e-01
4.203090153828e-01
4.228215753828e-01
4.253341353828e-01
4.278466953828e-01
4.303592553828e-01
4.328718153828e-01
4.353843753828e-01
4.378969353828e-01
4.404094953828e-01
4.429220553828e-01
4.454346153828e-01
4.479471753828e-01
4.504597353828e-01
4.529722953828e-01
4.554848553828e-01
4.579974153828e-01
4.605099753828e-01
4.630225353828e-01
4.655350953828e-01
4.680476553828e-01
4.705602153828e-01
4.730727753828e-01
4.755853353828e-01
4.780978953828e-01
4.806104553828e-01
4.831230153828e-01
4.856355753828e-01
4.881481353828e-01
4.906606953828e-01
4.931732553828e-01
4.956858153828e-01
4.978429076914e-01
5.000000000000e-01
</indep>
<dep tran.v(a) time>
0.000000000000e+00
5.000000000000e-02
1.000000000000e-01
2.000000000000e-01
4.000000000000e-01
8.000000000000e-01
1.193738556022e+00
1.663197642926e+00
2.121598363936e+00
3.038399805956e+00
4.019199902978e+00
5.000000000000e+00
5.000000000000e+00
5.000000000000e+00
5.000000000000e+00
5.000000000000e+00
5.000000000000e+00
5.000000000000e+00
5.000000000000e+00
5.000000000000e+00
5.000000000000e+00
5.000000000000e+00
5.000000000000e+00
5.000000000000e+00
5.000000000000e+00
5.000000000000e+00
5.000000000000e+00
5.000000000000e+00
5.000000000000e+00
5.000000000000e+00
5.000000000000e+00
5.000000000000e+00
5.000000000000e+00
5.000000000000e+00
5.000000000000e+00
5.000000000000e+00
5.000000000000e+00
5.000000000000e+00
5.000000000000e+00
5.000000000000e+00
5.000000000000e+00
5.000000000000e+00
5.000000000000e+00
5.000000000000e+00
5.000000000000e+00
5.000000000000e+00
5.000000000000e+00
5.000000000000e+00
5.000000000000e+00
5.000000000000e+00
5.000000000000e+00
5.000000000000e+00
5.000000000000e+00
5.000000000000e+00
5.000000000000e+00
5.000000000000e+00
5.000000000000e+00
5.000000000000e+00
5.000000000000e+00
5.000000000000e+00
5.000000000000e+00
5.000000000000e+00
5.000000000000e+00
5.000000000000e+00
5.000000000000e+00
5.000000000000e+00
5.000000000000e+00
5.000000000000e+00
5.000000000000e+00
5.000000000000e+00
5.000000000000e+00
5.000000000000e+00
5.000000000000e+00
5.000000000000e+00
5.000000000000e+00
5.000000000000e+00
5.000000000000e+00
5.000000000000e+00
5.000000000000e+00
5.000000000000e+00
5.000000000000e+00
5.000000000000e+00
5.000000000000e+00
5.000000000000e+00
5.000000000000e+00
5.000000000000e+00
5.000000000000e+00
5.000000000000e+00
5.000000000000e+00
5.000000000000e+00
5.000000000000e+00
5.000000000000e+00
5.000000000000e+00
5.000000000000e+00
5.000000000000e+00
5.000000000000e+00
5.000000000000e+00
5.000000000000e+00
5.000000000000e+00
5.000000000000e+00
5.000000000000e+00
5.000000000000e+00
5.000000000000e+00
5.000000000000e+00
5.000000000000e+00
5.000000000000e+00
5.000000000000e+00
5.000000000000e+00
5.000000000000e+00
5.000000000000e+00
5.000000000000e+00
5.000000000000e+00
5.000000000000e+00
5.000000000000e+00
5.000000000000e+00
5.000000000000e+00
5.000000000000e+00
5.000000000000e+00
5.000000000000e+00
5.000000000000e+00
5.000000000000e+00
5.000000000000e+00
5.000000000000e+00
5.000000000000e+00
5.000000000000e+00
5.000000000000e+00
5.000000000000e+00
5.000000000000e+00
5.000000000000e+00
5.000000000000e+00
4.499999999986e+00
3.499999999957e+00
2.652649862123e+00
1.783076412626e+00
8.915382063107e-01
0.000000000000e+00
0.000000000000e+00
0.000000000000e+00
0.000000000000e+00
0.000000000000e+00
0.000000000000e+00
0.000000000000e+00
0.000000000000e+00
0.000000000000e+00
0.000000000000e+00
0.000000000000e+00
0.000000000000e+00
0.000000000000e+00
0.000000000000e+00
0.000000000000e+00
0.000000000000e+00
0.000000000000e+00
0.000000000000e+00
0.000000000000e+00
0.000000000000e+00
0.000000000000e+00
0.000000000000e+00
0.000000000000e+00
0.000000000000e+00
0.000000000000e+00
0.000000000000e+00
0.000000000000e+00
0.000000000000e+00
0.000000000000e+00
0.000000000000e+00
0.000000000000e+00
0.000000000000e+00
0.000000000000e+00
0.000000000000e+00
0.000000000000e+00
0.000000000000e+00
0.000000000000e+00
0.000000000000e+00
0.000000000000e+00
0.000000000000e+00
0.000000000000e+00
0.000000000000e+00
0.000000000000e+00
0.000000000000e+00
0.000000000000e+00
0.000000000000e+00
0.000000000000e+00
0.000000000000e+00
0.000000000000e+00
0.000000000000e+00
0.000000000000e+00
0.000000000000e+00
0.000000000000e+00
0.000000000000e+00
0.000000000000e+00
0.000000000000e+00
0.000000000000e+00
0.000000000000e+00
0.000000000000e+00
0.000000000000e+00
0.000000000000e+00
0.000000000000e+00
0.000000000000e+00
0.000000000000e+00
0.000000000000e+00
0.000000000000e+00
0.000000000000e+00
0.000000000000e+00
0.000000000000e+00
0.000000000000e+00
0.000000000000e+00
0.000000000000e+00
0.000000000000e+00
0.000000000000e+00
0.000000000000e+00
0.000000000000e+00
0.000000000000e+00
0.000000000000e+00
0.000000000000e+00
0.000000000000e+00
0.000000000000e+00
0.000000000000e+00
0.000000000000e+00
0.000000000000e+00
0.000000000000e+00
0.000000000000e+00
0.000000000000e+00
0.000000000000e+00
0.000000000000e+00
0.000000000000e+00
0.000000000000e+00
0.000000000000e+00
0.000000000000e+00
0.000000000000e+00
0.000000000000e+00
0.000000000000e+00
0.000000000000e+00
0.000000000000e+00
0.000000000000e+00
0.000000000000e+00
0.000000000000e+00
0.000000000000e+00
0.000000000000e+00
0.000000000000e+00
0.000000000000e+00
0.000000000000e+00
0.000000000000e+00
0.000000000000e+00
0.000000000000e+00
0.000000000000e+00
0.000000000000e+00
0.000000000000e+00
0.000000000000e+00
0.000000000000e+00
0.000000000000e+00
0.000000000000e+00
0.000000000000e+00
0.000000000000e+00
0.000000000000e+00
5.000000000144e-01
1.500000000043e+00
2.115220882892e+00
2.926226151667e+00
3.963113075767e+00
4.999999999866e+00
5.000000000000e+00
5.000000000000e+00
5.000000000000e+00
5.000000000000e+00
5.000000000000e+00
5.000000000000e+00
5.000000000000e+00
5.000000000000e+00
5.000000000000e+00
5.000000000000e+00
5.000000000000e+00
5.000000000000e+00
5.000000000000e+00
5.000000000000e+00
5.000000000000e+00
5.000000000000e+00
5.000000000000e+00
5.000000000000e+00
5.000000000000e+00
5.000000000000e+00
5.000000000000e+00
5.000000000000e+00
5.000000000000e+00
5.000000000000e+00
5.000000000000e+00
5.000000000000e+00
5.000000000000e+00
5.000000000000e+00
5.000000000000e+00
5.000000000000e+00
5.000000000000e+00
5.000000000000e+00
5.000000000000e+00
5.000000000000e+00
5.000000000000e+00
5.000000000000e+00
5.000000000000e+00
5.000000000000e+00
5.000000000000e+00
5.000000000000e+00
5.000000000000e+00
5.000000000000e+00
5.000000000000e+00
5.000000000000e+00
5.000000000000e+00
5.000000000000e+00
5.000000000000e+00
5.000000000000e+00
5.000000000000e+00
5.000000000000e+00
5.000000000000e+00
5.000000000000e+00
5.000000000000e+00
5.000000000000e+00
5.000000000000e+00
</dep>
<dep tran.v(b) time>
0.000000000000e+00
0.000000000000e+00
0.000000000000e+00
0.000000000000e+00
0.000000000000e+00
0.000000000000e+00
0.000000000000e+00
0.000000000000e+00
0.000000000000e+00
0.000000000000e+00
0.000000000000e+00
0.000000000000e+00
0.000000000000e+00
0.000000000000e+00
0.000000000000e+00
0.000000000000e+00
0.000000000000e+00
0.000000000000e+00
0.000000000000e+00
0.000000000000e+00
0.000000000000e+00
0.000000000000e+00
0.000000000000e+00
0.000000000000e+00
0.000000000000e+00
0.000000000000e+00
0.000000000000e+00
0.000000000000e+00
0.000000000000e+00
0.000000000000e+00
0.000000000000e+00
0.000000000000e+00
0.000000000000e+00
0.000000000000e+00
0.000000000000e+00
0.000000000000e+00
0.000000000000e+00
0.000000000000e+00
0.000000000000e+00
0.000000000000e+00
0.000000000000e+00
0.000000000000e+00
0.000000000000e+00
0.000000000000e+00
0.000000000000e+00
0.000000000000e+00
0.000000000000e+00
0.000000000000e+00
0.000000000000e+00
0.000000000000e+00
0.000000000000e+00
0.000000000000e+00
0.000000000000e+00
0.000000000000e+00
0.000000000000e+00
0.000000000000e+00
0.000000000000e+00
0.000000000000e+00
0.000000000000e+00
0.000000000000e+00
0.000000000000e+00
0.000000000000e+00
0.000000000000e+00
0.000000000000e+00
0.000000000000e+00
0.000000000000e+00
0.000000000000e+00
5.000000000144e-01
1.500000000043e+00
2.309841097073e+00
3.083351744829e+00
4.041675872452e+00
5.000000000000e+00
5.000000000000e+00
5.000000000000e+00
5.000000000000e+00
5.000000000000e+00
5.000000000000e+00
5.000000000000e+00
5.000000000000e+00
5.000000000000e+00
5.000000000000e+00
5.000000000000e+00
5.000000000000e+00
5.000000000000e+00
5.000000000000e+00
5.000000000000e+00
5.000000000000e+00
5.000000000000e+00
5.000000000000e+00
5.000000000000e+00
5.000000000000e+00
5.000000000000e+00
5.000000000000e+00
5.000000000000e+00
5.000000000000e+00
5.000000000000e+00
5.000000000000e+00
5.000000000000e+00
5.000000000000e+00
5.000000000000e+00
5.000000000000e+00
5.000000000000e+00
5.000000000000e+00
5.000000000000e+00
5.000000000000e+00
5.000000000000e+00
5.000000000000e+00
5.000000000000e+00
5.000000000000e+00
5.000000000000e+00
5.000000000000e+00
5.000000000000e+00
5.000000000000e+00
5.000000000000e+00
5.000000000000e+00
5.000000000000e+00
5.000000000000e+00
5.000000000000e+00
5.000000000000e+00
5.000000000000e+00
5.000000000000e+00
5.000000000000e+00
5.000000000000e+00
5.000000000000e+00
5.000000000000e+00
5.000000000000e+00
5.000000000000e+00
5.000000000000e+00
5.000000000000e+00
5.000000000000e+00
5.000000000000e+00
5.000000000000e+00
5.000000000000e+00
5.000000000000e+00
5.000000000000e+00
5.000000000000e+00
5.000000000000e+00
5.000000000000e+00
5.000000000000e+00
5.000000000000e+00
5.000000000000e+00
5.000000000000e+00
5.000000000000e+00
5.000000000000e+00
5.000000000000e+00
5.000000000000e+00
5.000000000000e+00
5.000000000000e+00
5.000000000000e+00
5.000000000000e+00
5.000000000000e+00
5.000000000000e+00
5.000000000000e+00
5.000000000000e+00
5.000000000000e+00
5.000000000000e+00
5.000000000000e+00
5.000000000000e+00
5.000000000000e+00
5.000000000000e+00
5.000000000000e+00
5.000000000000e+00
5.000000000000e+00
5.000000000000e+00
5.000000000000e+00
5.000000000000e+00
5.000000000000e+00
5.000000000000e+00
5.000000000000e+00
5.000000000000e+00
5.000000000000e+00
5.000000000000e+00
5.000000000000e+00
5.000000000000e+00
5.000000000000e+00
5.000000000000e+00
5.000000000000e+00
5.000000000000e+00
5.000000000000e+00
5.000000000000e+00
5.000000000000e+00
5.000000000000e+00
5.000000000000e+00
5.000000000000e+00
5.000000000000e+00
5.000000000000e+00
5.000000000000e+00
5.000000000000e+00
5.000000000000e+00
5.000000000000e+00
5.000000000000e+00
5.000000000000e+00
4.499999999986e+00
3.499999999957e+00
1.750000000045e+00
1.337774335752e-10
0.000000000000e+00
0.000000000000e+00
0.000000000000e+00
0.000000000000e+00
0.000000000000e+00
0.000000000000e+00
0.000000000000e+00
0.000000000000e+00
0.000000000000e+00
0.000000000000e+00
0.000000000000e+00
0.000000000000e+00
0.000000000000e+00
0.000000000000e+00
0.000000000000e+00
0.000000000000e+00
0.000000000000e+00
0.000000000000e+00
0.000000000000e+00
0.000000000000e+00
0.000000000000e+00
0.000000000000e+00
0.000000000000e+00
0.000000000000e+00
0.000000000000e+00
0.000000000000e+00
0.000000000000e+00
0.000000000000e+00
0.000000000000e+00
0.000000000000e+00
0.000000000000e+00
0.000000000000e+00
0.000000000000e+00
0.000000000000e+00
0.000000000000e+00
0.000000000000e+00
0.000000000000e+00
0.000000000000e+00
0.000000000000e+00
0.000000000000e+00
0.000000000000e+00
0.000000000000e+00
0.000000000000e+00
0.000000000000e+00
0.000000000000e+00
0.000000000000e+00
0.000000000000e+00
0.000000000000e+00
0.000000000000e+00
0.000000000000e+00
0.000000000000e+00
0.000000000000e+00
0.000000000000e+00
0.000000000000e+00
0.000000000000e+00
0.000000000000e+00
0.000000000000e+00
0.000000000000e+00
0.000000000000e+00
0.000000000000e+00
0.000000000000e+00
0.000000000000e+00
0.000000000000e+00
0.000000000000e+00
0.000000000000e+00
0.000000000000e+00
0.000000000000e+00
0.000000000000e+00
0.000000000000e+00
0.000000000000e+00
0.000000000000e+00
0.000000000000e+00
0.000000000000e+00
0.000000000000e+00
0.000000000000e+00
0.000000000000e+00
0.000000000000e+00
0.000000000000e+00
0.000000000000e+00
0.000000000000e+00
0.000000000000e+00
0.000000000000e+00
0.000000000000e+00
0.000000000000e+00
0.000000000000e+00
0.000000000000e+00
0.000000000000e+00
0.000000000000e+00
0.000000000000e+00
0.000000000000e+00
0.000000000000e+00
0.000000000000e+00
0.000000000000e+00
0.000000000000e+00
0.000000000000e+00
0.000000000000e+00
0.000000000000e+00
0.000000000000e+00
0.000000000000e+00
0.000000000000e+00
0.000000000000e+00
0.000000000000e+00
0.000000000000e+00
0.000000000000e+00
0.000000000000e+00
0.000000000000e+00
0.000000000000e+00
0.000000000000e+00
0.000000000000e+00
0.000000000000e+00
0.000000000000e+00
0.000000000000e+00
0.000000000000e+00
0.000000000000e+00
0.000000000000e+00
0.000000000000e+00
0.000000000000e+00
0.000000000000e+00
</dep>
<dep tran.v(vcc) time>
1.000000000000e+00
1.000000000000e+00
1.000000000000e+00
1.000000000000e+00
1.000000000000e+00
1.000000000000e+00
1.000000000000e+00
1.000000000000e+00
1.000000000000e+00
1.000000000000e+00
1.000000000000e+00
1.000000000000e+00
1.000000000000e+00
1.000000000000e+00
1.000000000000e+00
1.000000000000e+00
1.000000000000e+00
1.000000000000e+00
1.000000000000e+00
1.000000000000e+00
1.000000000000e+00
1.000000000000e+00
1.000000000000e+00
1.000000000000e+00
1.000000000000e+00
1.000000000000e+00
1.000000000000e+00
1.000000000000e+00
1.000000000000e+00
1.000000000000e+00
1.000000000000e+00
1.000000000000e+00
1.000000000000e+00
1.000000000000e+00
1.000000000000e+00
1.000000000000e+00
1.000000000000e+00
1.000000000000e+00
1.000000000000e+00
1.000000000000e+00
1.000000000000e+00
1.000000000000e+00
1.000000000000e+00
1.000000000000e+00
1.000000000000e+00
1.000000000000e+00
1.000000000000e+00
1.000000000000e+00
1.000000000000e+00
1.000000000000e+00
1.000000000000e+00
1.000000000000e+00
1.000000000000e+00
1.000000000000e+00
1.000000000000e+00
1.000000000000e+00
1.000000000000e+00
1.000000000000e+00
1.000000000000e+00
1.000000000000e+00
1.000000000000e+00
1.000000000000e+00
1.000000000000e+00
1.000000000000e+00
1.000000000000e+00
1.000000000000e+00
1.000000000000e+00
1.000000000000e+00
1.000000000000e+00
1.000000000000e+00
1.000000000000e+00
1.000000000000e+00
1.000000000000e+00
1.000000000000e+00
1.000000000000e+00
1.000000000000e+00
1.000000000000e+00
1.000000000000e+00
1.000000000000e+00
1.000000000000e+00
1.000000000000e+00
1.000000000000e+00
1.000000000000e+00
1.000000000000e+00
1.000000000000e+00
1.000000000000e+00
1.000000000000e+00
1.000000000000e+00
1.000000000000e+00
1.000000000000e+00
1.000000000000e+00
1.000000000000e+00
1.000000000000e+00
1.000000000000e+00
1.000000000000e+00
1.000000000000e+00
1.000000000000e+00
1.000000000000e+00
1.000000000000e+00
1.000000000000e+00
