<Qucs Dataset 26.1.1>
<indep time 218>
0.000000000000e+00
5.025130000000e-05
1.005026000000e-04
2.010052000000e-04
4.020104000000e-04
8.040208000000e-04
1.608041600000e-03
3.216083200000e-03
6.432166400000e-03
1.145729640000e-02
1.648242640000e-02
2.150755640000e-02
2.653268640000e-02
3.155781640000e-02
3.658294640000e-02
4.160807640000e-02
4.663320640000e-02
5.165833640000e-02
5.668346640000e-02
6.170859640000e-02
6.673372640000e-02
7.175885640000e-02
7.678398640000e-02
8.180911640000e-02
8.683424640000e-02
9.185937640000e-02
9.688450640000e-02
9.900000000000e-02
9.910000000000e-02
9.930000000000e-02
9.950000000000e-02
9.990000000000e-02
1.000000000000e-01
1.000800000000e-01
1.002400000000e-01
1.005600000000e-01
1.012000000000e-01
1.024800000000e-01
1.050400000000e-01
1.100651300000e-01
1.150902600000e-01
1.201153900000e-01
1.251405200000e-01
1.301656500000e-01
1.351907800000e-01
1.402159100000e-01
1.452410400000e-01
1.502661700000e-01
1.552913000000e-01
1.603164300000e-01
1.653415600000e-01
1.703666900000e-01
1.753918200000e-01
1.804169500000e-01
1.854420800000e-01
1.904672100000e-01
1.954923400000e-01
2.005174700000e-01
2.055426000000e-01
2.105677300000e-01
2.155928600000e-01
2.206179900000e-01
2.256431200000e-01
2.306682500000e-01
2.356933800000e-01
2.407185100000e-01
2.457436400000e-01
2.507687700000e-01
2.557939000000e-01
2.608190300000e-01
2.658441600000e-01
2.708692900000e-01
2.758944200000e-01
2.809195500000e-01
2.859446800000e-01
2.909698100000e-01
2.959949400000e-01
3.010200700000e-01
3.060452000000e-01
3.110703300000e-01
3.160954600000e-01
3.211205900000e-01
3.261457200000e-01
3.311708500000e-01
3.361959800000e-01
3.412211100000e-01
3.462462400000e-01
3.512713700000e-01
3.562965000000e-01
3.613216300000e-01
3.663467600000e-01
3.713718900000e-01
3.763970200000e-01
3.814221500000e-01
3.864472800000e-01
3.914724100000e-01
3.964975400000e-01
4.015226700000e-01
4.065478000000e-01
4.115729300000e-01
4.165980600000e-01
4.216231900000e-01
4.266483200000e-01
4.316734500000e-01
4.366985800000e-01
4.417237100000e-01
4.467488400000e-01
4.517739700000e-01
4.567991000000e-01
4.618242300000e-01
4.668493600000e-01
4.718744900000e-01
4.768996200000e-01
4.819247500000e-01
4.869498800000e-01
4.919750100000e-01
4.970001400000e-01
5.020252700000e-01
5.070504000000e-01
5.120755300000e-01
5.171006600000e-01
5.221257900000e-01
5.271509200000e-01
5.321760500000e-01
5.372011800000e-01
5.422263100000e-01
5.472514400000e-01
5.522765700000e-01
5.573017000000e-01
5.623268300000e-01
5.673519600000e-01
5.723770900000e-01
5.774022200000e-01
5.824273500000e-01
5.874524800000e-01
5.924776100000e-01
5.975027400000e-01
6.025278700000e-01
6.075530000000e-01
6.125781300000e-01
6.176032600000e-01
6.226283900000e-01
6.276535200000e-01
6.326786500000e-01
6.377037800000e-01
6.427289100000e-01
6.477540400000e-01
6.527791700000e-01
6.578043000000e-01
6.628294300000e-01
6.678545600000e-01
6.728796900000e-01
6.779048200000e-01
6.829299500000e-01
6.879550800000e-01
6.929802100000e-01
6.980053400000e-01
7.030304700000e-01
7.080556000000e-01
7.130807300000e-01
7.181058600000e-01
7.231309900000e-01
7.281561200000e-01
7.331812500000e-01
7.382063800000e-01
7.432315100000e-01
7.482566400000e-01
7.532817700000e-01
7.583069000000e-01
7.633320300000e-01
7.683571600000e-01
7.733822900000e-01
7.784074200000e-01
7.834325500000e-01
7.884576800000e-01
7.934828100000e-01
7.985079400000e-01
8.035330700000e-01
8.085582000000e-01
8.135833300000e-01
8.186084600000e-01
8.236335900000e-01
8.286587200000e-01
8.336838500000e-01
8.387089800000e-01
8.437341100000e-01
8.487592400000e-01
8.537843700000e-01
8.588095000000e-01
8.638346300000e-01
8.688597600000e-01
8.738848900000e-01
8.789100200000e-01
8.839351500000e-01
8.889602800000e-01
8.939854100000e-01
8.990105400000e-01
9.040356700000e-01
9.090608000000e-01
9.140859300000e-01
9.191110600000e-01
9.241361900000e-01
9.291613200000e-01
9.341864500000e-01
9.392115800000e-01
9.442367100000e-01
9.492618400000e-01
9.542869700000e-01
9.593121000000e-01
9.643372300000e-01
9.693623600000e-01
9.743874900000e-01
9.794126200000e-01
9.844377500000e-01
9.894628800000e-01
9.944880100000e-01
9.995131400000e-01
1.000000000000e+00
</indep>
<dep tran.i(pr1) time>
1.749968314729e-02
1.749968314729e-02
1.749968314729e-02
1.749968314729e-02
1.749968314729e-02
1.749968314729e-02
1.749968314729e-02
1.749968314729e-02
1.749968314729e-02
1.749968314729e-02
1.749968314729e-02
1.749968314729e-02
1.749968314729e-02
1.749968314729e-02
1.749968314729e-02
1.749968314729e-02
1.749968314729e-02
1.749968314729e-02
1.749968314729e-02
1.749968314729e-02
1.749968314729e-02
1.749968314729e-02
1.749968314729e-02
1.749968314729e-02
1.749968314729e-02
1.749968314729e-02
1.749968314729e-02
1.749968314729e-02
1.749968314729e-02
1.749968314729e-02
1.749968314729e-02
1.749968314729e-02
1.749968314729e-02
1.749968314729e-02
1.749968314729e-02
1.749968314729e-02
1.749968314729e-02
1.749968314729e-02
1.749968314729e-02
1.749968314729e-02
1.749968314729e-02
1.749968314729e-02
1.749968314729e-02
1.749968314729e-02
1.749968314729e-02
1.749968314729e-02
1.749968314729e-02
1.749968314728e-02
1.749968314728e-02
1.749968314728e-02
1.749968314728e-02
1.749968314728e-02
1.749968314728e-02
1.749968314728e-02
1.749968314727e-02
1.749968314727e-02
1.749968314727e-02
1.749968314727e-02
1.749968314726e-02
1.749968314726e-02
1.749968314726e-02
1.749968314725e-02
1.749968314725e-02
1.749968314724e-02
1.749968314723e-02
1.749968314723e-02
1.749968314722e-02
1.749968314721e-02
1.749968314720e-02
1.749968314719e-02
1.749968314717e-02
1.749968314715e-02
1.749968314714e-02
1.749968314712e-02
1.749968314709e-02
1.749968314707e-02
1.749968314704e-02
1.749968314700e-02
1.749968314696e-02
1.749968314692e-02
1.749968314687e-02
1.749968314681e-02
1.749968314675e-02
1.749968314668e-02
1.749968314659e-02
1.749968314650e-02
1.749968314639e-02
1.749968314627e-02
1.749968314613e-02
1.749968314598e-02
1.749968314580e-02
1.749968314560e-02
1.749968314537e-02
1.749968314511e-02
1.749968314482e-02
1.749968314449e-02
1.749968314411e-02
1.749968314368e-02
1.749968314320e-02
1.749968314264e-02
1.749968314202e-02
1.749968314131e-02
1.749968314050e-02
1.749968313959e-02
1.749968313855e-02
1.749968313737e-02
1.749968313603e-02
1.749968313451e-02
1.749968313279e-02
1.749968313083e-02
1.749968312862e-02
1.749968312610e-02
1.749968312324e-02
1.749968312000e-02
1.749968311632e-02
1.749968311215e-02
1.749968310741e-02
1.749968310204e-02
1.749968309594e-02
1.749968308901e-02
1.749968308116e-02
1.749968307224e-02
1.749968306212e-02
1.749968305064e-02
1.749968303761e-02
1.749968302283e-02
1.749968300605e-02
1.749968298701e-02
1.749968296540e-02
1.749968294088e-02
1.749968291306e-02
1.749968288148e-02
1.749968284564e-02
1.749968280498e-02
1.749968275883e-02
1.749968270646e-02
1.749968264703e-02
1.749968257959e-02
1.749968250306e-02
1.749968241621e-02
1.749968231765e-02
1.749968220580e-02
1.749968207888e-02
1.749968193485e-02
1.749968177140e-02
1.749968158591e-02
1.749968137542e-02
1.749968113655e-02
1.749968086548e-02
1.749968055787e-02
1.749968020879e-02
1.749967981264e-02
1.749967936310e-02
1.749967885294e-02
1.749967827402e-02
1.749967761705e-02
1.749967687151e-02
1.749967602547e-02
1.749967506537e-02
1.749967397583e-02
1.749967273942e-02
1.749967133632e-02
1.749966974408e-02
1.749966793717e-02
1.749966588668e-02
1.749966355976e-02
1.749966091914e-02
1.749965792254e-02
1.749965452197e-02
1.749965066295e-02
1.749964628370e-02
1.749964131408e-02
1.749963567449e-02
1.749962927462e-02
1.749962201198e-02
1.749961377024e-02
1.749960441743e-02
1.749959380374e-02
1.749958175920e-02
1.749956809091e-02
1.749955257997e-02
1.749953497795e-02
1.749951500297e-02
1.749949233509e-02
1.749946661129e-02
1.749943741957e-02
1.749940429241e-02
1.749936669924e-02
1.749932403795e-02
1.749927562528e-02
1.749922068582e-02
1.749915833962e-02
1.749908758809e-02
1.749900729799e-02
1.749891618327e-02
1.749881278447e-02
1.749869544534e-02
1.749856228626e-02
1.749841117413e-02
1.749823968818e-02
1.749804508115e-02
1.749782423523e-02
1.749757361204e-02
1.749728919588e-02
1.749696642930e-02
1.749660013989e-02
1.749618445729e-02
1.749571271885e-02
1.749517736258e-02
1.749456980558e-02
1.749388030590e-02
1.749309780581e-02
1.749220975354e-02
1.749120190096e-02
1.749005807354e-02
1.748875990894e-02
1.748728655976e-02
1.748713385352e-02
</dep>
<dep tran.v(vcc) time>
5.000000000000e+00
5.000000000000e+00
5.000000000000e+00
5.000000000000e+00
5.000000000000e+00
5.000000000000e+00
5.000000000000e+00
5.000000000000e+00
5.000000000000e+00
5.000000000000e+00
5.000000000000e+00
5.000000000000e+00
5.000000000000e+00
5.000000000000e+00
5.000000000000e+00
5.000000000000e+00
5.000000000000e+00
5.000000000000e+00
5.000000000000e+00
5.000000000000e+00
5.000000000000e+00
5.000000000000e+00
5.000000000000e+00
5.000000000000e+00
5.000000000000e+00
5.000000000000e+00
5.000000000000e+00
5.000000000000e+00
5.000000000000e+00
5.000000000000e+00
5.000000000000e+00
5.000000000000e+00
5.000000000000e+00
5.000000000000e+00
5.000000000000e+00
5.000000000000e+00
5.000000000000e+00
5.000000000000e+00
5.000000000000e+00
5.000000000000e+00
5.000000000000e+00
5.000000000000e+00
5.000000000000e+00
5.000000000000e+00
5.000000000000e+00
5.000000000000e+00
5.000000000000e+00
5.000000000000e+00
5.000000000000e+00
5.000000000000e+00
5.000000000000e+00
5.000000000000e+00
5.000000000000e+00
5.000000000000e+00
5.000000000000e+00
5.000000000000e+00
5.000000000000e+00
5.000000000000e+00
5.000000000000e+00
5.000000000000e+00
5.000000000000e+00
5.000000000000e+00
5.000000000000e+00
5.000000000000e+00
5.000000000000e+00
5.000000000000e+00
5.000000000000e+00
5.000000000000e+00
5.000000000000e+00
5.000000000000e+00
5.000000000000e+00
5.000000000000e+00
5.000000000000e+00
5.000000000000e+00
5.000000000000e+00
5.000000000000e+00
5.000000000000e+00
5.000000000000e+00
5.000000000000e+00
5.000000000000e+00
5.000000000000e+00
5.000000000000e+00
5.000000000000e+00
5.000000000000e+00
5.000000000000e+00
5.000000000000e+00
5.000000000000e+00
5.000000000000e+00
5.000000000000e+00
5.000000000000e+00
5.000000000000e+00
5.000000000000e+00
5.000000000000e+00
5.000000000000e+00
5.000000000000e+00
5.000000000000e+00
5.000000000000e+00
5.000000000000e+00
5.000000000000e+00
5.000000000000e+00
5.000000000000e+00
5.000000000000e+00
5.000000000000e+00
5.000000000000e+00
5.000000000000e+00
5.000000000000e+00
5.000000000000e+00
5.000000000000e+00
5.000000000000e+00
5.000000000000e+00
5.000000000000e+00
5.000000000000e+00
5.000000000000e+00
5.000000000000e+00
5.000000000000e+00
5.000000000000e+00
5.000000000000e+00
5.000000000000e+00
5.000000000000e+00
5.000000000000e+00
5.000000000000e+00
5.000000000000e+00
5.000000000000e+00
5.000000000000e+00
5.000000000000e+00
5.000000000000e+00
5.000000000000e+00
5.000000000000e+00
5.000000000000e+00
5.000000000000e+00
5.000000000000e+00
5.000000000000e+00
5.000000000000e+00
5.000000000000e+00
5.000000000000e+00
5.000000000000e+00
5.000000000000e+00
5.000000000000e+00
5.000000000000e+00
5.000000000000e+00
5.000000000000e+00
5.000000000000e+00
5.000000000000e+00
5.000000000000e+00
5.000000000000e+00
5.000000000000e+00
5.000000000000e+00
5.000000000000e+00
5.000000000000e+00
5.000000000000e+00
5.000000000000e+00
5.000000000000e+00
5.000000000000e+00
5.000000000000e+00
5.000000000000e+00
5.000000000000e+00
5.000000000000e+00
5.000000000000e+00
5.000000000000e+00
5.000000000000e+00
5.000000000000e+00
5.000000000000e+00
5.000000000000e+00
5.000000000000e+00
5.000000000000e+00
5.000000000000e+00
5.000000000000e+00
5.000000000000e+00
5.000000000000e+00
5.000000000000e+00
5.000000000000e+00
5.000000000000e+00
5.000000000000e+00
5.000000000000e+00
5.000000000000e+00
5.000000000000e+00
5.000000000000e+00
5.000000000000e+00
5.000000000000e+00
5.000000000000e+00
5.000000000000e+00
5.000000000000e+00
5.000000000000e+00
5.000000000000e+00
5.000000000000e+00
5.000000000000e+00
5.000000000000e+00
5.000000000000e+00
5.000000000000e+00
5.000000000000e+00
5.000000000000e+00
5.000000000000e+00
5.000000000000e+00
5.000000000000e+00
5.000000000000e+00
5.000000000000e+00
5.000000000000e+00
5.000000000000e+00
5.000000000000e+00
5.000000000000e+00
5.000000000000e+00
5.000000000000e+00
5.000000000000e+00
5.000000000000e+00
5.000000000000e+00
5.000000000000e+00
5.000000000000e+00
5.000000000000e+00
5.000000000000e+00
5.000000000000e+00
5.000000000000e+00
5.000000000000e+00
5.000000000000e+00
5.000000000000e+00
5.000000000000e+00
5.000000000000e+00
5.000000000000e+00
5.000000000000e+00
</dep>
<dep tran.v(q) time>
4.999999993634e+00
4.999999993634e+00
4.999999993634e+00
4.999999993634e+00
4.999999993634e+00
4.999999993634e+00
4.999999993634e+00
4.999999993634e+00
4.999999993634e+00
4.999999993634e+00
4.999999993634e+00
4.999999993634e+00
4.999999993634e+00
4.999999993634e+00
4.999999993634e+00
4.999999993634e+00
4.999999993634e+00
4.999999993634e+00
4.999999993634e+00
4.999999993634e+00
4.999999993634e+00
4.999999993634e+00
4.999999993634e+00
4.999999993634e+00
4.999999993634e+00
4.999999993634e+00
4.999999993634e+00
4.999999993634e+00
4.999999993634e+00
4.999999993634e+00
4.999999993634e+00
4.999999993634e+00
4.999999993634e+00
4.999999993634e+00
4.999999993634e+00
4.999999993634e+00
4.999999993634e+00
4.999999993634e+00
4.999999993634e+00
4.999999993634e+00
4.999999993634e+00
4.999999993634e+00
4.999999993634e+00
4.999999993634e+00
4.999999993634e+00
4.999999993634e+00
4.999999993634e+00
4.999999993634e+00
4.999999993634e+00
4.999999993634e+00
4.999999993634e+00
4.999999993634e+00
4.999999993634e+00
4.999999993634e+00
4.999999993634e+00
4.999999993634e+00
4.999999993634e+00
4.999999993634e+00
4.999999993634e+00
4.999999993634e+00
4.999999993634e+00
4.999999993634e+00
4.999999993634e+00
4.999999993634e+00
4.999999993634e+00
4.999999993634e+00
4.999999993634e+00
4.999999993634e+00
4.999999993634e+00
4.999999993634e+00
4.999999993634e+00
4.999999993634e+00
4.999999993634e+00
4.999999993634e+00
4.999999993634e+00
4.999999993634e+00
4.999999993634e+00
4.999999993634e+00
4.999999993634e+00
4.999999993634e+00
4.999999993634e+00
4.999999993634e+00
4.999999993634e+00
4.999999993634e+00
4.999999993634e+00
4.999999993634e+00
4.999999993634e+00
4.999999993634e+00
4.999999993634e+00
4.999999993634e+00
4.999999993634e+00
4.999999993634e+00
4.999999993634e+00
4.999999993634e+00
4.999999993634e+00
4.999999993634e+00
4.999999993634e+00
4.999999993634e+00
4.999999993634e+00
4.999999993634e+00
4.999999993634e+00
4.999999993634e+00
4.999999993634e+00
4.999999993634e+00
4.999999993634e+00
4.999999993634e+00
4.999999993634e+00
4.999999993634e+00
4.999999993634e+00
4.999999993634e+00
4.999999993634e+00
4.999999993634e+00
4.999999993634e+00
4.999999993634e+00
4.999999993634e+00
4.999999993634e+00
4.999999993634e+00
4.999999993634e+00
4.999999993634e+00
4.999999993634e+00
4.999999993634e+00
4.999999993634e+00
4.999999993634e+00
4.999999993634e+00
4.999999993634e+00
4.999999993634e+00
4.999999993634e+00
4.999999993634e+00
4.999999993634e+00
4.999999993634e+00
4.999999993634e+00
4.999999993634e+00
4.999999993634e+00
4.999999993634e+00
4.999999993634e+00
4.999999993634e+00
4.999999993634e+00
4.999999993634e+00
4.999999993634e+00
4.999999993634e+00
4.999999993634e+00
4.999999993634e+00
4.999999993634e+00
4.999999993634e+00
4.999999993634e+00
4.999999993634e+00
4.999999993634e+00
4.999999993634e+00
4.999999993634e+00
4.999999993634e+00
4.999999993634e+00
4.999999993634e+00
4.999999993634e+00
4.999999993634e+00
4.999999993634e+00
4.999999993634e+00
4.999999993634e+00
4.999999993634e+00
4.999999993634e+00
4.999999993634e+00
4.999999993634e+00
4.999999993634e+00
4.999999993634e+00
4.999999993634e+00
4.999999993634e+00
4.999999993634e+00
4.999999993634e+00
4.999999993634e+00
4.999999993634e+00
4.999999993634e+00
4.999999993634e+00
4.999999993634e+00
4.999999993634e+00
4.999999993634e+00
4.999999993634e+00
4.999999993634e+00
4.999999993634e+00
4.999999993634e+00
4.999999993634e+00
4.999999993634e+00
4.999999993634e+00
4.999999993634e+00
4.999999993634e+00
4.999999993634e+00
4.999999993634e+00
4.999999993634e+00
4.999999993634e+00
4.999999993634e+00
4.999999993634e+00
4.999999993634e+00
4.999999993634e+00
4.999999993634e+00
4.999999993634e+00
4.999999993634e+00
4.999999993634e+00
4.999999993634e+00
4.999999993634e+00
4.999999993634e+00
4.999999993634e+00
4.999999993634e+00
4.999999993634e+00
4.999999993634e+00
4.999999993634e+00
4.999999993634e+00
4.999999993634e+00
4.999999993634e+00
4.999999993634e+00
4.999999993634e+00
4.999999993634e+00
4.999999993634e+00
4.999999993634e+00
4.999999993634e+00
4.999999993634e+00
4.999999993634e+00
4.999999993634e+00
4.999999993634e+00
4.999999993635e+00
4.999999993635e+00
</dep>
