<Qucs Dataset 1.0.7>
<indep time 200>
  +0.00000000000000000000e+00
  +5.02512562814070359168e-03
  +1.00502512562814071834e-02
  +1.50753768844221099077e-02
  +2.01005025125628143667e-02
  +2.51256281407035188258e-02
  +3.01507537688442198154e-02
  +3.51758793969849242744e-02
  +4.02010050251256287335e-02
  +4.52261306532663331925e-02
  +5.02512562814070376516e-02
  +5.52763819095477421106e-02
  +6.03015075376884396308e-02
  +6.53266331658291510287e-02
  +7.03517587939698485489e-02
  +7.53768844221105599468e-02
  +8.04020100502512574669e-02
  +8.54271356783919549871e-02
  +9.04522613065326663850e-02
  +9.54773869346733639052e-02
  +1.00502512562814075303e-01
  +1.05527638190954772823e-01
  +1.10552763819095484221e-01
  +1.15577889447236181741e-01
  +1.20603015075376879262e-01
  +1.25628140703517576782e-01
  +1.30653266331658302057e-01
  +1.35678391959798999578e-01
  +1.40703517587939697098e-01
  +1.45728643216080394618e-01
  +1.50753768844221119894e-01
  +1.55778894472361817414e-01
  +1.60804020100502514934e-01
  +1.65829145728643212454e-01
  +1.70854271356783909974e-01
  +1.75879396984924635250e-01
  +1.80904522613065332770e-01
  +1.85929648241206030290e-01
  +1.90954773869346727810e-01
  +1.95979899497487453086e-01
  +2.01005025125628150606e-01
  +2.06030150753768848126e-01
  +2.11055276381909545647e-01
  +2.16080402010050243167e-01
  +2.21105527638190968442e-01
  +2.26130653266331665963e-01
  +2.31155778894472363483e-01
  +2.36180904522613061003e-01
  +2.41206030150753758523e-01
  +2.46231155778894483799e-01
  +2.51256281407035153563e-01
  +2.56281407035175878839e-01
  +2.61306532663316604115e-01
  +2.66331658291457273879e-01
  +2.71356783919597999155e-01
  +2.76381909547738724431e-01
  +2.81407035175879394195e-01
  +2.86432160804020119471e-01
  +2.91457286432160789236e-01
  +2.96482412060301514511e-01
  +3.01507537688442239787e-01
  +3.06532663316582909552e-01
  +3.11557788944723634827e-01
  +3.16582914572864304592e-01
  +3.21608040201005029868e-01
  +3.26633165829145755144e-01
  +3.31658291457286424908e-01
  +3.36683417085427150184e-01
  +3.41708542713567819948e-01
  +3.46733668341708545224e-01
  +3.51758793969849270500e-01
  +3.56783919597989940264e-01
  +3.61809045226130665540e-01
  +3.66834170854271335305e-01
  +3.71859296482412060580e-01
  +3.76884422110552785856e-01
  +3.81909547738693455621e-01
  +3.86934673366834180896e-01
  +3.91959798994974906172e-01
  +3.96984924623115575937e-01
  +4.02010050251256301213e-01
  +4.07035175879396970977e-01
  +4.12060301507537696253e-01
  +4.17085427135678421529e-01
  +4.22110552763819091293e-01
  +4.27135678391959816569e-01
  +4.32160804020100486333e-01
  +4.37185929648241211609e-01
  +4.42211055276381936885e-01
  +4.47236180904522606649e-01
  +4.52261306532663331925e-01
  +4.57286432160804001690e-01
  +4.62311557788944726965e-01
  +4.67336683417085452241e-01
  +4.72361809045226122006e-01
  +4.77386934673366847282e-01
  +4.82412060301507517046e-01
  +4.87437185929648242322e-01
  +4.92462311557788967598e-01
  +4.97487437185929637362e-01
  +5.02512562814070307127e-01
  +5.07537688442211032402e-01
  +5.12562814070351757678e-01
  +5.17587939698492482954e-01
  +5.22613065326633208230e-01
  +5.27638190954773822483e-01
  +5.32663316582914547759e-01
  +5.37688442211055273035e-01
  +5.42713567839195998310e-01
  +5.47738693467336723586e-01
  +5.52763819095477448862e-01
  +5.57788944723618063115e-01
  +5.62814070351758788391e-01
  +5.67839195979899513667e-01
  +5.72864321608040238942e-01
  +5.77889447236180964218e-01
  +5.82914572864321578471e-01
  +5.87939698492462303747e-01
  +5.92964824120603029023e-01
  +5.97989949748743754299e-01
  +6.03015075376884479574e-01
  +6.08040201005025093828e-01
  +6.13065326633165819104e-01
  +6.18090452261306544379e-01
  +6.23115577889447269655e-01
  +6.28140703517587994931e-01
  +6.33165829145728609184e-01
  +6.38190954773869334460e-01
  +6.43216080402010059736e-01
  +6.48241206030150785011e-01
  +6.53266331658291510287e-01
  +6.58291457286432124540e-01
  +6.63316582914572849816e-01
  +6.68341708542713575092e-01
  +6.73366834170854300368e-01
  +6.78391959798995025643e-01
  +6.83417085427135639897e-01
  +6.88442211055276365173e-01
  +6.93467336683417090448e-01
  +6.98492462311557815724e-01
  +7.03517587939698541000e-01
  +7.08542713567839155253e-01
  +7.13567839195979880529e-01
  +7.18592964824120605805e-01
  +7.23618090452261331080e-01
  +7.28643216080402056356e-01
  +7.33668341708542670609e-01
  +7.38693467336683395885e-01
  +7.43718592964824121161e-01
  +7.48743718592964846437e-01
  +7.53768844221105571712e-01
  +7.58793969849246296988e-01
  +7.63819095477386911242e-01
  +7.68844221105527636517e-01
  +7.73869346733668361793e-01
  +7.78894472361809087069e-01
  +7.83919597989949812344e-01
  +7.88944723618090426598e-01
  +7.93969849246231151874e-01
  +7.98994974874371877149e-01
  +8.04020100502512602425e-01
  +8.09045226130653327701e-01
  +8.14070351758793941954e-01
  +8.19095477386934667230e-01
  +8.24120603015075392506e-01
  +8.29145728643216117781e-01
  +8.34170854271356843057e-01
  +8.39195979899497457311e-01
  +8.44221105527638182586e-01
  +8.49246231155778907862e-01
  +8.54271356783919633138e-01
  +8.59296482412060358413e-01
  +8.64321608040200972667e-01
  +8.69346733668341697943e-01
  +8.74371859296482423218e-01
  +8.79396984924623148494e-01
  +8.84422110552763873770e-01
  +8.89447236180904488023e-01
  +8.94472361809045213299e-01
  +8.99497487437185938575e-01
  +9.04522613065326663850e-01
  +9.09547738693467389126e-01
  +9.14572864321608003380e-01
  +9.19597989949748728655e-01
  +9.24623115577889453931e-01
  +9.29648241206030179207e-01
  +9.34673366834170904482e-01
  +9.39698492462311518736e-01
  +9.44723618090452244012e-01
  +9.49748743718592969287e-01
  +9.54773869346733694563e-01
  +9.59798994974874419839e-01
  +9.64824120603015034092e-01
  +9.69849246231155759368e-01
  +9.74874371859296484644e-01
  +9.79899497487437209919e-01
  +9.84924623115577935195e-01
  +9.89949748743718660471e-01
  +9.94974874371859274724e-01
  +1.00000000000000000000e+00
</indep>
<dep Pr1.It time>
  +1.74992929519125588189e-02
  +1.74992929519301211594e-02
  +1.74992929519301211594e-02
  +1.74992929519301176899e-02
  +1.74992929519301246288e-02
  +1.74992929519301280983e-02
  +1.74992929519301246288e-02
  +1.74992929519301246288e-02
  +1.74992929519301280983e-02
  +1.74992929519301280983e-02
  +1.74992929519301315677e-02
  +1.74992929519301315677e-02
  +1.74992929519301315677e-02
  +1.74992929519301350372e-02
  +1.74992929519301350372e-02
  +1.74992929519301385066e-02
  +1.74992929519301385066e-02
  +1.74992929519301350372e-02
  +1.74992929519301419761e-02
  +1.74992929519301385066e-02
  +1.74992929519301315677e-02
  +1.74992929519301246288e-02
  +1.74992929519301246288e-02
  +1.74992929519301211594e-02
  +1.74992929519301176899e-02
  +1.74992929519301211594e-02
  +1.74992929519301176899e-02
  +1.74992929519301211594e-02
  +1.74992929519301246288e-02
  +1.74992929519301246288e-02
  +1.74992929519301246288e-02
  +1.74992929519301211594e-02
  +1.74992929519301176899e-02
  +1.74992929519301107510e-02
  +1.74992929519301107510e-02
  +1.74992929519301107510e-02
  +1.74992929519301072816e-02
  +1.74992929519300968733e-02
  +1.74992929519300934038e-02
  +1.74992929519300864649e-02
  +1.74992929519300864649e-02
  +1.74992929519300760566e-02
  +1.74992929519300725871e-02
  +1.74992929519300621788e-02
  +1.74992929519300552399e-02
  +1.74992929519300448316e-02
  +1.74992929519300344232e-02
  +1.74992929519300240149e-02
  +1.74992929519300066676e-02
  +1.74992929519299997287e-02
  +1.74992929519299719732e-02
  +1.74992929519299546259e-02
  +1.74992929519299303398e-02
  +1.74992929519298956453e-02
  +1.74992929519298609509e-02
  +1.74992929519298401342e-02
  +1.74992929519298054397e-02
  +1.74992929519297533980e-02
  +1.74992929519297013563e-02
  +1.74992929519296493146e-02
  +1.74992929519295972729e-02
  +1.74992929519295278840e-02
  +1.74992929519294446172e-02
  +1.74992929519293613505e-02
  +1.74992929519292503282e-02
  +1.74992929519291323670e-02
  +1.74992929519290039975e-02
  +1.74992929519288548112e-02
  +1.74992929519286744000e-02
  +1.74992929519284939888e-02
  +1.74992929519282650053e-02
  +1.74992929519280152051e-02
  +1.74992929519277445882e-02
  +1.74992929519274184602e-02
  +1.74992929519270506988e-02
  +1.74992929519266413041e-02
  +1.74992929519261659899e-02
  +1.74992929519256316950e-02
  +1.74992929519250280113e-02
  +1.74992929519243445302e-02
  +1.74992929519235673741e-02
  +1.74992929519226861346e-02
  +1.74992929519216938727e-02
  +1.74992929519205593636e-02
  +1.74992929519192826071e-02
  +1.74992929519178150310e-02
  +1.74992929519161531660e-02
  +1.74992929519142761952e-02
  +1.74992929519121390158e-02
  +1.74992929519097242808e-02
  +1.74992929519069834177e-02
  +1.74992929519038643849e-02
  +1.74992929519003255490e-02
  +1.74992929518963218072e-02
  +1.74992929518917698928e-02
  +1.74992929518866038863e-02
  +1.74992929518807543987e-02
  +1.74992929518740965300e-02
  +1.74992929518665539523e-02
  +1.74992929518579982962e-02
  +1.74992929518482873141e-02
  +1.74992929518372752895e-02
  +1.74992929518247714027e-02
  +1.74992929518105917730e-02
  +1.74992929517945039475e-02
  +1.74992929517762442482e-02
  +1.74992929517555316499e-02
  +1.74992929517320261468e-02
  +1.74992929517053599775e-02
  +1.74992929516750925223e-02
  +1.74992929516407554058e-02
  +1.74992929516017969860e-02
  +1.74992929515575962318e-02
  +1.74992929515074314983e-02
  +1.74992929514505290989e-02
  +1.74992929513859557522e-02
  +1.74992929513126949104e-02
  +1.74992929512295634920e-02
  +1.74992929511352326988e-02
  +1.74992929510282106687e-02
  +1.74992929509067765559e-02
  +1.74992929507689840007e-02
  +1.74992929506126576600e-02
  +1.74992929504352856540e-02
  +1.74992929502340091585e-02
  +1.74992929500056570991e-02
  +1.74992929497465449229e-02
  +1.74992929494525439882e-02
  +1.74992929491189774804e-02
  +1.74992929487404816347e-02
  +1.74992929483110300215e-02
  +1.74992929478237635443e-02
  +1.74992929472708863559e-02
  +1.74992929466435652441e-02
  +1.74992929459317769769e-02
  +1.74992929451241556460e-02
  +1.74992929442078053170e-02
  +1.74992929431680745156e-02
  +1.74992929419883480602e-02
  +1.74992929406497903233e-02
  +1.74992929391310086951e-02
  +1.74992929374077413329e-02
  +1.74992929354524477670e-02
  +1.74992929332338995052e-02
  +1.74992929307166387998e-02
  +1.74992929278604616994e-02
  +1.74992929246197206905e-02
  +1.74992929209426481552e-02
  +1.74992929167705028870e-02
  +1.74992929120366264018e-02
  +1.74992929066653674086e-02
  +1.74992929005709264845e-02
  +1.74992928936559336006e-02
  +1.74992928858099111578e-02
  +1.74992928769074906903e-02
  +1.74992928668064526287e-02
  +1.74992928553454121787e-02
  +1.74992928423412588690e-02
  +1.74992928275862352772e-02
  +1.74992928108445924829e-02
  +1.74992927918488465344e-02
  +1.74992927702955283764e-02
  +1.74992927458402711127e-02
  +1.74992927180923525665e-02
  +1.74992926866084641535e-02
  +1.74992926508855915768e-02
  +1.74992926103530004045e-02
  +1.74992925643631010157e-02
  +1.74992925121811165878e-02
  +1.74992924529733702432e-02
  +1.74992923857938895149e-02
  +1.74992923095693836411e-02
  +1.74992922230820108220e-02
  +1.74992921249500013592e-02
  +1.74992920136055017666e-02
  +1.74992918872695982224e-02
  +1.74992917439238254707e-02
  +1.74992915812780050477e-02
  +1.74992913967335697589e-02
  +1.74992911873420968483e-02
  +1.74992909497581686229e-02
  +1.74992906801859741950e-02
  +1.74992903743185906906e-02
  +1.74992900272692777919e-02
  +1.74992896334932625246e-02
  +1.74992891866992753003e-02
  +1.74992886797489949346e-02
  +1.74992881045429732323e-02
  +1.74992874518912489012e-02
  +1.74992867113665379053e-02
  +1.74992858711376202130e-02
  +1.74992849177803208582e-02
  +1.74992838360630321992e-02
  +1.74992826087033495619e-02
  +1.74992812160919795905e-02
  +1.74992796359794006156e-02
  +1.74992778431204282219e-02
  +1.74992758088708399988e-02
  +1.74992735007297485483e-02
  +1.74992708818203224208e-02
</dep>
<dep V1.It time>
  -1.74992929519125588189e-02
  -1.74992929519301211594e-02
  -1.74992929519301211594e-02
  -1.74992929519301176899e-02
  -1.74992929519301246288e-02
  -1.74992929519301280983e-02
  -1.74992929519301246288e-02
  -1.74992929519301246288e-02
  -1.74992929519301280983e-02
  -1.74992929519301280983e-02
  -1.74992929519301315677e-02
  -1.74992929519301315677e-02
  -1.74992929519301315677e-02
  -1.74992929519301350372e-02
  -1.74992929519301350372e-02
  -1.74992929519301385066e-02
  -1.74992929519301385066e-02
  -1.74992929519301350372e-02
  -1.74992929519301419761e-02
  -1.74992929519301385066e-02
  -1.74992929519301315677e-02
  -1.74992929519301246288e-02
  -1.74992929519301246288e-02
  -1.74992929519301211594e-02
  -1.74992929519301176899e-02
  -1.74992929519301211594e-02
  -1.74992929519301176899e-02
  -1.74992929519301211594e-02
  -1.74992929519301246288e-02
  -1.74992929519301246288e-02
  -1.74992929519301246288e-02
  -1.74992929519301211594e-02
  -1.74992929519301176899e-02
  -1.74992929519301107510e-02
  -1.74992929519301107510e-02
  -1.74992929519301107510e-02
  -1.74992929519301072816e-02
  -1.74992929519300968733e-02
  -1.74992929519300934038e-02
  -1.74992929519300864649e-02
  -1.74992929519300864649e-02
  -1.74992929519300760566e-02
  -1.74992929519300725871e-02
  -1.74992929519300621788e-02
  -1.74992929519300552399e-02
  -1.74992929519300448316e-02
  -1.74992929519300344232e-02
  -1.74992929519300240149e-02
  -1.74992929519300066676e-02
  -1.74992929519299997287e-02
  -1.74992929519299719732e-02
  -1.74992929519299546259e-02
  -1.74992929519299303398e-02
  -1.74992929519298956453e-02
  -1.74992929519298609509e-02
  -1.74992929519298401342e-02
  -1.74992929519298054397e-02
  -1.74992929519297533980e-02
  -1.74992929519297013563e-02
  -1.74992929519296493146e-02
  -1.74992929519295972729e-02
  -1.74992929519295278840e-02
  -1.74992929519294446172e-02
  -1.74992929519293613505e-02
  -1.74992929519292503282e-02
  -1.74992929519291323670e-02
  -1.74992929519290039975e-02
  -1.74992929519288548112e-02
  -1.74992929519286744000e-02
  -1.74992929519284939888e-02
  -1.74992929519282650053e-02
  -1.74992929519280152051e-02
  -1.74992929519277445882e-02
  -1.74992929519274184602e-02
  -1.74992929519270506988e-02
  -1.74992929519266413041e-02
  -1.74992929519261659899e-02
  -1.74992929519256316950e-02
  -1.74992929519250280113e-02
  -1.74992929519243445302e-02
  -1.74992929519235673741e-02
  -1.74992929519226861346e-02
  -1.74992929519216938727e-02
  -1.74992929519205593636e-02
  -1.74992929519192826071e-02
  -1.74992929519178150310e-02
  -1.74992929519161531660e-02
  -1.74992929519142761952e-02
  -1.74992929519121390158e-02
  -1.74992929519097242808e-02
  -1.74992929519069834177e-02
  -1.74992929519038643849e-02
  -1.74992929519003255490e-02
  -1.74992929518963218072e-02
  -1.74992929518917698928e-02
  -1.74992929518866038863e-02
  -1.74992929518807543987e-02
  -1.74992929518740965300e-02
  -1.74992929518665539523e-02
  -1.74992929518579982962e-02
  -1.74992929518482873141e-02
  -1.74992929518372752895e-02
  -1.74992929518247714027e-02
  -1.74992929518105917730e-02
  -1.74992929517945039475e-02
  -1.74992929517762442482e-02
  -1.74992929517555316499e-02
  -1.74992929517320261468e-02
  -1.74992929517053599775e-02
  -1.74992929516750925223e-02
  -1.74992929516407554058e-02
  -1.74992929516017969860e-02
  -1.74992929515575962318e-02
  -1.74992929515074314983e-02
  -1.74992929514505290989e-02
  -1.74992929513859557522e-02
  -1.74992929513126949104e-02
  -1.74992929512295634920e-02
  -1.74992929511352326988e-02
  -1.74992929510282106687e-02
  -1.74992929509067765559e-02
  -1.74992929507689840007e-02
  -1.74992929506126576600e-02
  -1.74992929504352856540e-02
  -1.74992929502340091585e-02
  -1.74992929500056570991e-02
  -1.74992929497465449229e-02
  -1.74992929494525439882e-02
  -1.74992929491189774804e-02
  -1.74992929487404816347e-02
  -1.74992929483110300215e-02
  -1.74992929478237635443e-02
  -1.74992929472708863559e-02
  -1.74992929466435652441e-02
  -1.74992929459317769769e-02
  -1.74992929451241556460e-02
  -1.74992929442078053170e-02
  -1.74992929431680745156e-02
  -1.74992929419883480602e-02
  -1.74992929406497903233e-02
  -1.74992929391310086951e-02
  -1.74992929374077413329e-02
  -1.74992929354524477670e-02
  -1.74992929332338995052e-02
  -1.74992929307166387998e-02
  -1.74992929278604616994e-02
  -1.74992929246197206905e-02
  -1.74992929209426481552e-02
  -1.74992929167705028870e-02
  -1.74992929120366264018e-02
  -1.74992929066653674086e-02
  -1.74992929005709264845e-02
  -1.74992928936559336006e-02
  -1.74992928858099111578e-02
  -1.74992928769074906903e-02
  -1.74992928668064526287e-02
  -1.74992928553454121787e-02
  -1.74992928423412588690e-02
  -1.74992928275862352772e-02
  -1.74992928108445924829e-02
  -1.74992927918488465344e-02
  -1.74992927702955283764e-02
  -1.74992927458402711127e-02
  -1.74992927180923525665e-02
  -1.74992926866084641535e-02
  -1.74992926508855915768e-02
  -1.74992926103530004045e-02
  -1.74992925643631010157e-02
  -1.74992925121811165878e-02
  -1.74992924529733702432e-02
  -1.74992923857938895149e-02
  -1.74992923095693836411e-02
  -1.74992922230820108220e-02
  -1.74992921249500013592e-02
  -1.74992920136055017666e-02
  -1.74992918872695982224e-02
  -1.74992917439238254707e-02
  -1.74992915812780050477e-02
  -1.74992913967335697589e-02
  -1.74992911873420968483e-02
  -1.74992909497581686229e-02
  -1.74992906801859741950e-02
  -1.74992903743185906906e-02
  -1.74992900272692777919e-02
  -1.74992896334932625246e-02
  -1.74992891866992753003e-02
  -1.74992886797489949346e-02
  -1.74992881045429732323e-02
  -1.74992874518912489012e-02
  -1.74992867113665379053e-02
  -1.74992858711376202130e-02
  -1.74992849177803208582e-02
  -1.74992838360630321992e-02
  -1.74992826087033495619e-02
  -1.74992812160919795905e-02
  -1.74992796359794006156e-02
  -1.74992778431204282219e-02
  -1.74992758088708399988e-02
  -1.74992735007297485483e-02
  -1.74992708818203224208e-02
</dep>
<dep _net1.Vt time>
  +0.00000000000000000000e+00
  +0.00000000000000000000e+00
  +0.00000000000000000000e+00
  +0.00000000000000000000e+00
  +0.00000000000000000000e+00
  +0.00000000000000000000e+00
  +0.00000000000000000000e+00
  +0.00000000000000000000e+00
  +0.00000000000000000000e+00
  +0.00000000000000000000e+00
  +0.00000000000000000000e+00
  +0.00000000000000000000e+00
  +0.00000000000000000000e+00
  +0.00000000000000000000e+00
  +0.00000000000000000000e+00
  +0.00000000000000000000e+00
  +0.00000000000000000000e+00
  +0.00000000000000000000e+00
  +0.00000000000000000000e+00
  +0.00000000000000000000e+00
  +0.00000000000000000000e+00
  +0.00000000000000000000e+00
  +0.00000000000000000000e+00
  +0.00000000000000000000e+00
  +0.00000000000000000000e+00
  +0.00000000000000000000e+00
  +0.00000000000000000000e+00
  +0.00000000000000000000e+00
  +0.00000000000000000000e+00
  +0.00000000000000000000e+00
  +0.00000000000000000000e+00
  +0.00000000000000000000e+00
  +0.00000000000000000000e+00
  +0.00000000000000000000e+00
  +0.00000000000000000000e+00
  +0.00000000000000000000e+00
  +0.00000000000000000000e+00
  +0.00000000000000000000e+00
  +0.00000000000000000000e+00
  +0.00000000000000000000e+00
  +0.00000000000000000000e+00
  +0.00000000000000000000e+00
  +0.00000000000000000000e+00
  +0.00000000000000000000e+00
  +0.00000000000000000000e+00
  +0.00000000000000000000e+00
  +0.00000000000000000000e+00
  +0.00000000000000000000e+00
  +0.00000000000000000000e+00
  +0.00000000000000000000e+00
  +0.00000000000000000000e+00
  +0.00000000000000000000e+00
  +0.00000000000000000000e+00
  +0.00000000000000000000e+00
  +0.00000000000000000000e+00
  +0.00000000000000000000e+00
  +0.00000000000000000000e+00
  +0.00000000000000000000e+00
  +0.00000000000000000000e+00
  +0.00000000000000000000e+00
  +0.00000000000000000000e+00
  +0.00000000000000000000e+00
