<Qucs Dataset 1.0.7>
<indep time 200>
  +0.00000000000000000000e+00
  +5.52763819095477323528e-05
  +1.10552763819095464706e-04
  +1.65829145728643197058e-04
  +2.21105527638190929411e-04
  +2.76381909547738688869e-04
  +3.31658291457286394117e-04
  +3.86934673366834099364e-04
  +4.42211055276381858822e-04
  +4.97487437185929618280e-04
  +5.52763819095477377738e-04
  +6.08040201005025028776e-04
  +6.63316582914572788233e-04
  +7.18592964824120547691e-04
  +7.73869346733668198729e-04
  +8.29145728643215958187e-04
  +8.84422110552763717645e-04
  +9.39698492462311477103e-04
  +9.94974874371859236560e-04
  +1.05025125628140699602e-03
  +1.10552763819095475548e-03
  +1.16080402010050229809e-03
  +1.21608040201005005755e-03
  +1.27135678391959781701e-03
  +1.32663316582914557647e-03
  +1.38190954773869333592e-03
  +1.43718592964824109538e-03
  +1.49246231155778885484e-03
  +1.54773869346733639746e-03
  +1.60301507537688415692e-03
  +1.65829145728643191637e-03
  +1.71356783919597967583e-03
  +1.76884422110552743529e-03
  +1.82412060301507519475e-03
  +1.87939698492462295421e-03
  +1.93467336683417071366e-03
  +1.98994974874371847312e-03
  +2.04522613065326623258e-03
  +2.10050251256281399204e-03
  +2.15577889447236175149e-03
  +2.21105527638190951095e-03
  +2.26633165829145683673e-03
  +2.32160804020100459619e-03
  +2.37688442211055235564e-03
  +2.43216080402010011510e-03
  +2.48743718592964787456e-03
  +2.54271356783919563402e-03
  +2.59798994974874339348e-03
  +2.65326633165829115293e-03
  +2.70854271356783891239e-03
  +2.76381909547738667185e-03
  +2.81909547738693443131e-03
  +2.87437185929648219077e-03
  +2.92964824120602995022e-03
  +2.98492462311557770968e-03
  +3.04020100502512546914e-03
  +3.09547738693467279492e-03
  +3.15075376884422055437e-03
  +3.20603015075376831383e-03
  +3.26130653266331607329e-03
  +3.31658291457286383275e-03
  +3.37185929648241159221e-03
  +3.42713567839195935166e-03
  +3.48241206030150711112e-03
  +3.53768844221105487058e-03
  +3.59296482412060263004e-03
  +3.64824120603015038949e-03
  +3.70351758793969814895e-03
  +3.75879396984924590841e-03
  +3.81407035175879366787e-03
  +3.86934673366834142733e-03
  +3.92462311557788875310e-03
  +3.97989949748743694624e-03
  +4.03517587939698427202e-03
  +4.09045226130653246516e-03
  +4.14572864321607979093e-03
  +4.20100502512562798407e-03
  +4.25628140703517530985e-03
  +4.31155778894472350299e-03
  +4.36683417085427082877e-03
  +4.42211055276381902190e-03
  +4.47738693467336634768e-03
  +4.53266331658291367346e-03
  +4.58793969849246186660e-03
  +4.64321608040200919237e-03
  +4.69849246231155738551e-03
  +4.75376884422110471129e-03
  +4.80904522613065290443e-03
  +4.86432160804020023021e-03
  +4.91959798994974842334e-03
  +4.97487437185929574912e-03
  +5.03015075376884394226e-03
  +5.08542713567839126804e-03
  +5.14070351758793946118e-03
  +5.19597989949748678695e-03
  +5.25125628140703498009e-03
  +5.30653266331658230587e-03
  +5.36180904522612963164e-03
  +5.41708542713567782478e-03
  +5.47236180904522515056e-03
  +5.52763819095477334370e-03
  +5.58291457286432066948e-03
  +5.63819095477386886262e-03
  +5.69346733668341618839e-03
  +5.74874371859296438153e-03
  +5.80402010050251170731e-03
  +5.85929648241205990045e-03
  +5.91457286432160722622e-03
  +5.96984924623115541936e-03
  +6.02512562814070274514e-03
  +6.08040201005025093828e-03
  +6.13567839195979826405e-03
  +6.19095477386934558983e-03
  +6.24623115577889378297e-03
  +6.30150753768844110875e-03
  +6.35678391959798930189e-03
  +6.41206030150753662766e-03
  +6.46733668341708482080e-03
  +6.52261306532663214658e-03
  +6.57788944723618033972e-03
  +6.63316582914572766549e-03
  +6.68844221105527585863e-03
  +6.74371859296482318441e-03
  +6.79899497487437137755e-03
  +6.85427135678391870333e-03
  +6.90954773869346689646e-03
  +6.96482412060301422224e-03
  +7.02010050251256241538e-03
  +7.07537688442210974116e-03
  +7.13065326633165706693e-03
  +7.18592964824120526007e-03
  +7.24120603015075258585e-03
  +7.29648241206030077899e-03
  +7.35175879396984810477e-03
  +7.40703517587939629790e-03
  +7.46231155778894362368e-03
  +7.51758793969849181682e-03
  +7.57286432160803914260e-03
  +7.62814070351758733574e-03
  +7.68341708542713466151e-03
  +7.73869346733668285465e-03
  +7.79396984924623018043e-03
  +7.84924623115577750621e-03
  +7.90452261306532656671e-03
  +7.95979899497487389248e-03
  +8.01507537688442121826e-03
  +8.07035175879396854404e-03
  +8.12562814070351586981e-03
  +8.18090452261306493031e-03
  +8.23618090452261225609e-03
  +8.29145728643215958187e-03
  +8.34673366834170690765e-03
  +8.40201005025125596815e-03
  +8.45728643216080329392e-03
  +8.51256281407035061970e-03
  +8.56783919597989794548e-03
  +8.62311557788944700598e-03
  +8.67839195979899433175e-03
  +8.73366834170854165753e-03
  +8.78894472361808898331e-03
  +8.84422110552763804381e-03
  +8.89949748743718536959e-03
  +8.95477386934673269536e-03
  +9.01005025125628002114e-03
  +9.06532663316582734692e-03
  +9.12060301507537640742e-03
  +9.17587939698492373319e-03
  +9.23115577889447105897e-03
  +9.28643216080401838475e-03
  +9.34170854271356744525e-03
  +9.39698492462311477103e-03
  +9.45226130653266209680e-03
  +9.50753768844220942258e-03
  +9.56281407035175848308e-03
  +9.61809045226130580886e-03
  +9.67336683417085313463e-03
  +9.72864321608040046041e-03
  +9.78391959798994778619e-03
  +9.83919597989949684669e-03
  +9.89447236180904417246e-03
  +9.94974874371859149824e-03
  +1.00050251256281388240e-02
  +1.00603015075376878845e-02
  +1.01155778894472352103e-02
  +1.01708542713567825361e-02
  +1.02261306532663298619e-02
  +1.02814070351758789224e-02
  +1.03366834170854262481e-02
  +1.03919597989949735739e-02
  +1.04472361809045208997e-02
  +1.05025125628140699602e-02
  +1.05577889447236172860e-02
  +1.06130653266331646117e-02
  +1.06683417085427119375e-02
  +1.07236180904522592633e-02
  +1.07788944723618083238e-02
  +1.08341708542713556496e-02
  +1.08894472361809029753e-02
  +1.09447236180904503011e-02
  +1.09999999999999993616e-02
</indep>
<dep Pr1.It time>
  +1.29403441552474011977e-02
  +1.29403441668327675446e-02
  +1.29403441668320736552e-02
  +1.29403441668319140606e-02
  +1.29403441668318984481e-02
  +1.29403441668319001828e-02
  +1.29403441668319314078e-02
  +1.29403441668319418162e-02
  +1.29403441668318689578e-02
  +1.29403441668318689578e-02
  +1.29403441668318689578e-02
  +1.29403441668319487551e-02
  +1.29403441668318880398e-02
  +1.29403441668318967134e-02
  +1.29403441668318863050e-02
  +1.29403441668318967134e-02
  +1.29403441668318967134e-02
  +1.29403441668318967134e-02
  +1.29403441668318967134e-02
  +1.28602015442420211655e-02
  +1.28220513705138948468e-02
  +1.27841950957270165251e-02
  +1.27466304523315299840e-02
  +1.27093551896142221980e-02
  +1.26723670742687859192e-02
  +1.26356638902686401610e-02
  +1.25992434387662676637e-02
  +1.25631035380521192957e-02
  +1.25272420236568239604e-02
  +1.24916567488423373850e-02
  +1.24563455860870059277e-02
  +1.24213064311383403204e-02
  +1.23865372136137408265e-02
  +1.23520359242177552028e-02
  +1.23178006837658896716e-02
  +1.22838299166577406135e-02
  +1.22501227833556863150e-02
  +1.22166802504474186070e-02
  +1.21835077188312546070e-02
  +1.21506214321303006309e-02
  +1.21180639904163982984e-02
  +1.20859416367320917501e-02
  +1.20545132208882931069e-02
  +1.20244008465743811020e-02
  +1.19970844077399527855e-02
  +1.19760503220432083099e-02
  +1.19694188616660170815e-02
  +1.19958027693658642737e-02
  +1.20968770576000105021e-02
  +1.23643040561000460559e-02
  +1.30397314600383257277e-02
  +1.67044886269387543587e-02
  +1.66393874390214843717e-02
  +1.65747720588647860784e-02
  +1.65106388362948122706e-02
  +1.64469841463601648690e-02
  +1.63838043915062736566e-02
  +1.63210960013664488355e-02
  +1.62588554325591334859e-02
  +1.61970791684795598075e-02
  +1.61357637190982991515e-02
  +1.60749056207604504309e-02
  +1.60145014359862891684e-02
  +1.59545477532701505952e-02
  +1.58950411868860469466e-02
  +1.58359783766925388271e-02
  +1.57773559879370757486e-02
  +1.57191707110651800183e-02
  +1.56614192615278993714e-02
  +1.56040983795941914231e-02
  +1.55472048301612160437e-02
  +1.54907354025694121019e-02
  +1.54346869104148246704e-02
  +1.53790561913689661361e-02
  +1.53238401069925572057e-02
  +1.52690355425560246594e-02
  +1.52146394068613244333e-02
  +1.51606486320619727320e-02
  +1.51070601734864355670e-02
  +1.50538710094622295299e-02
  +1.50010781411423644444e-02
  +1.49486785923320878583e-02
  +1.48966694093178725344e-02
  +1.48450476606957863790e-02
  +1.47938104372031496714e-02
  +1.47429548515513857837e-02
  +1.46924780382592361921e-02
  +1.46423771534856805854e-02
  +1.45926493748696536196e-02
  +1.45432919013641099443e-02
  +1.44943019530761642299e-02
  +1.44456767711061574017e-02
  +1.43974136173890161772e-02
  +1.43495097745365701725e-02
  +1.43019625456795931862e-02
  +1.42547692543151163086e-02
  +1.42079272441482350187e-02
  +1.41614338789436324667e-02
  +1.41152865423690605795e-02
  +1.40694826378476214174e-02
  +1.40240195884082582967e-02
  +1.39788948365340819774e-02
  +1.39341058440200765006e-02
  +1.38896500918251133982e-02
  +1.38455250799272375911e-02
  +1.38017283271944408984e-02
  +1.37582573712570106761e-02
  +1.37151097684237461422e-02
  +1.36722830936957286119e-02
  +1.36297749410267815540e-02
  +1.35875829242370071981e-02
  +1.35457046796131005961e-02
  +1.35041378728329858339e-02
  +1.34628802169159522001e-02
  +1.34219295180483689373e-02
  +1.33812837913960674951e-02
  +1.33409415512934399761e-02
  +1.33009025327494589952e-02
  +1.32611694719657925712e-02
  +1.32217524681971735495e-02
  +1.31826795918896233495e-02
  +1.31440224968238147246e-02
  +1.31059578010270551263e-02
  +1.30689130421751589090e-02
  +1.30339106584032252828e-02
  +1.30033693223194305594e-02
  +1.29829374349803277483e-02
  +1.29855522918371039942e-02
  +1.30398462754027100879e-02
  +1.32053229956083442720e-02
  +1.35941455790445087093e-02
  +1.44160075007464666408e-02
  +1.46486134217729303819e-02
  +1.45778236592803180083e-02
  +1.45310481030578447781e-02
  +1.45027438300706287833e-02
  +1.44465639204531554746e-02
  +1.43909294999965305106e-02
  +1.43438453443891084094e-02
  +1.42971066039502808093e-02
  +1.42507107200178905621e-02
  +1.42046551530308328565e-02
  +1.41589373823932333091e-02
  +1.41135549063541101966e-02
  +1.40685052419221457570e-02
  +1.40237859248763183095e-02
  +1.39793945100197755660e-02
  +1.39353285720691839888e-02
  +1.38915857081752178170e-02
  +1.38481635446140415036e-02
  +1.38050597540591655360e-02
  +1.37622720995018120449e-02
  +1.37197985447834926859e-02
  +1.36776375304350911177e-02
  +1.36357886567379515963e-02
  +1.35942543626979463894e-02
  +1.35530440231047492189e-02
  +1.35121838744526184817e-02
  +1.34717408894895213783e-02
  +1.34318797812059513574e-02
  +1.33929980535103070050e-02
  +1.33560431274423307285e-02
  +1.33232484472525156138e-02
  +1.32998116041376356761e-02
  +1.32975953427624561665e-02
  +1.33427543130690967610e-02
  +1.34299966532787726919e-02
  +1.36967900532217051746e-02
  +1.42761503256608555251e-02
  +1.54590663839068876567e-02
  +1.39979074600018252306e-02
  +1.39537079893071562509e-02
  +1.39098330195051422126e-02
  +1.38662805467580953211e-02
  +1.38230491862443797407e-02
  +1.37801390786446657094e-02
  +1.37375541154858074600e-02
  +1.36953073829090745533e-02
  +1.36534343819731934094e-02
  +1.36120249002768221869e-02
  +1.35712992718317916607e-02
  +1.35317893673391163867e-02
  +1.34947640135024173047e-02
  +1.34632156392419828628e-02
  +1.34440980706014914792e-02
  +1.34531873785100342111e-02
  +1.35247178332912991461e-02
  +1.37270273591770606419e-02
  +1.41794278184627382117e-02
  +1.50771432825522952448e-02
  +1.37154500856222147376e-02
  +1.36738812371139002722e-02
  +1.36332505360148344836e-02
  +1.35944396487272176066e-02
  +1.35595383968676909403e-02
  +1.35334363594566565309e-02
  +1.35273546166120393203e-02
  +1.35661714702458614801e-02
  +1.37015403225452334773e-02
  +1.40288659402549101274e-02
</dep>
<dep V1.It time>
  -1.29403441552474011977e-02
  -1.29403441668327675446e-02
  -1.29403441668320736552e-02
  -1.29403441668319140606e-02
  -1.29403441668318984481e-02
  -1.29403441668319001828e-02
  -1.29403441668319314078e-02
  -1.29403441668319418162e-02
  -1.29403441668318689578e-02
  -1.29403441668318689578e-02
  -1.29403441668318689578e-02
  -1.29403441668319487551e-02
  -1.29403441668318880398e-02
  -1.29403441668318967134e-02
  -1.29403441668318863050e-02
  -1.29403441668318967134e-02
  -1.29403441668318967134e-02
  -1.29403441668318967134e-02
  -1.29403441668318967134e-02
  -1.28602015442420211655e-02
  -1.28220513705138948468e-02
  -1.27841950957270165251e-02
  -1.27466304523315299840e-02
  -1.27093551896142221980e-02
  -1.26723670742687859192e-02
  -1.26356638902686401610e-02
  -1.25992434387662676637e-02
  -1.25631035380521192957e-02
  -1.25272420236568239604e-02
  -1.24916567488423373850e-02
  -1.24563455860870059277e-02
  -1.24213064311383403204e-02
  -1.23865372136137408265e-02
  -1.23520359242177552028e-02
  -1.23178006837658896716e-02
  -1.22838299166577406135e-02
  -1.22501227833556863150e-02
  -1.22166802504474186070e-02
  -1.21835077188312546070e-02
  -1.21506214321303006309e-02
  -1.21180639904163982984e-02
  -1.20859416367320917501e-02
  -1.20545132208882931069e-02
  -1.20244008465743811020e-02
  -1.19970844077399527855e-02
  -1.19760503220432083099e-02
  -1.19694188616660170815e-02
  -1.19958027693658642737e-02
  -1.20968770576000105021e-02
  -1.23643040561000460559e-02
  -1.30397314600383257277e-02
  -1.67044886269387543587e-02
  -1.66393874390214843717e-02
  -1.65747720588647860784e-02
  -1.65106388362948122706e-02
  -1.64469841463601648690e-02
  -1.63838043915062736566e-02
  -1.63210960013664488355e-02
  -1.62588554325591334859e-02
  -1.61970791684795598075e-02
  -1.61357637190982991515e-02
  -1.60749056207604504309e-02
  -1.60145014359862891684e-02
  -1.59545477532701505952e-02
  -1.58950411868860469466e-02
  -1.58359783766925388271e-02
  -1.57773559879370757486e-02
  -1.57191707110651800183e-02
  -1.56614192615278993714e-02
  -1.56040983795941914231e-02
  -1.55472048301612160437e-02
  -1.54907354025694121019e-02
  -1.54346869104148246704e-02
  -1.53790561913689661361e-02
  -1.53238401069925572057e-02
  -1.52690355425560246594e-02
  -1.52146394068613244333e-02
  -1.51606486320619727320e-02
  -1.51070601734864355670e-02
  -1.50538710094622295299e-02
  -1.50010781411423644444e-02
  -1.49486785923320878583e-02
  -1.48966694093178725344e-02
  -1.48450476606957863790e-02
  -1.47938104372031496714e-02
  -1.47429548515513857837e-02
  -1.46924780382592361921e-02
  -1.46423771534856805854e-02
  -1.45926493748696536196e-02
  -1.45432919013641099443e-02
  -1.44943019530761642299e-02
  -1.44456767711061574017e-02
  -1.43974136173890161772e-02
  -1.43495097745365701725e-02
  -1.43019625456795931862e-02
  -1.42547692543151163086e-02
  -1.42079272441482350187e-02
  -1.41614338789436324667e-02
  -1.41152865423690605795e-02
  -1.40694826378476214174e-02
  -1.40240195884082582967e-02
  -1.39788948365340819774e-02
  -1.39341058440200765006e-02
  -1.38896500918251133982e-02
  -1.38455250799272375911e-02
  -1.38017283271944408984e-02
  -1.37582573712570106761e-02
  -1.37151097684237461422e-02
  -1.36722830936957286119e-02
  -1.36297749410267815540e-02
  -1.35875829242370071981e-02
  -1.35457046796131005961e-02
  -1.35041378728329858339e-02
  -1.34628802169159522001e-02
  -1.34219295180483689373e-02
  -1.33812837913960674951e-02
  -1.33409415512934399761e-02
  -1.33009025327494589952e-02
  -1.32611694719657925712e-02
  -1.32217524681971735495e-02
  -1.31826795918896233495e-02
  -1.31440224968238147246e-02
  -1.31059578010270551263e-02
  -1.30689130421751589090e-02
  -1.30339106584032252828e-02
  -1.30033693223194305594e-02
  -1.29829374349803277483e-02
  -1.29855522918371039942e-02
  -1.30398462754027100879e-02
  -1.32053229956083442720e-02
  -1.35941455790445087093e-02
  -1.44160075007464666408e-02
  -1.46486134217729303819e-02
  -1.45778236592803180083e-02
  -1.45310481030578447781e-02
  -1.45027438300706287833e-02
  -1.44465639204531554746e-02
  -1.43909294999965305106e-02
  -1.43438453443891084094e-02
  -1.42971066039502808093e-02
  -1.42507107200178905621e-02
  -1.42046551530308328565e-02
  -1.41589373823932333091e-02
  -1.41135549063541101966e-02
  -1.40685052419221457570e-02
  -1.40237859248763183095e-02
  -1.39793945100197755660e-02
  -1.39353285720691839888e-02
  -1.38915857081752178170e-02
  -1.38481635446140415036e-02
  -1.38050597540591655360e-02
  -1.37622720995018120449e-02
  -1.37197985447834926859e-02
  -1.36776375304350911177e-02
  -1.36357886567379515963e-02
  -1.35942543626979463894e-02
  -1.35530440231047492189e-02
  -1.35121838744526184817e-02
  -1.34717408894895213783e-02
  -1.34318797812059513574e-02
  -1.33929980535103070050e-02
  -1.33560431274423307285e-02
  -1.33232484472525156138e-02
  -1.32998116041376356761e-02
  -1.32975953427624561665e-02
  -1.33427543130690967610e-02
  -1.34299966532787726919e-02
  -1.36967900532217051746e-02
  -1.42761503256608555251e-02
  -1.54590663839068876567e-02
  -1.39979074600018252306e-02
  -1.39537079893071562509e-02
  -1.39098330195051422126e-02
  -1.38662805467580953211e-02
  -1.38230491862443797407e-02
  -1.37801390786446657094e-02
  -1.37375541154858074600e-02
  -1.36953073829090745533e-02
  -1.36534343819731934094e-02
  -1.36120249002768221869e-02
  -1.35712992718317916607e-02
  -1.35317893673391163867e-02
  -1.34947640135024173047e-02
  -1.34632156392419828628e-02
  -1.34440980706014914792e-02
  -1.34531873785100342111e-02
  -1.35247178332912991461e-02
  -1.37270273591770606419e-02
  -1.41794278184627382117e-02
  -1.50771432825522952448e-02
  -1.37154500856222147376e-02
  -1.36738812371139002722e-02
  -1.36332505360148344836e-02
  -1.35944396487272176066e-02
  -1.35595383968676909403e-02
  -1.35334363594566565309e-02
  -1.35273546166120393203e-02
  -1.35661714702458614801e-02
  -1.37015403225452334773e-02
  -1.40288659402549101274e-02
</dep>
<dep Vcc.Vt time>
  +3.60000000000000008882e+00
  +3.60000000000000008882e+00
  +3.60000000000000008882e+00
  +3.60000000000000008882e+00
  +3.60000000000000008882e+00
  +3.60000000000000008882e+00
  +3.60000000000000008882e+00
  +3.60000000000000008882e+00
  +3.60000000000000008882e+00
  +3.60000000000000008882e+00
  +3.60000000000000008882e+00
  +3.60000000000000008882e+00
  +3.60000000000000008882e+00
  +3.60000000000000008882e+00
  +3.60000000000000008882e+00
  +3.60000000000000008882e+00
  +3.60000000000000008882e+00
  +3.60000000000000008882e+00
  +3.60000000000000008882e+00
  +3.60000000000000008882e+00
  +3.60000000000000008882e+00
  +3.60000000000000008882e+00
  +3.60000000000000008882e+00
  +3.60000000000000008882e+00
  +3.60000000000000008882e+00
  +3.60000000000000008882e+00
  +3.60000000000000008882e+00
  +3.60000000000000008882e+00
  +3.60000000000000008882e+00
  +3.60000000000000008882e+00
  +3.60000000000000008882e+00
  +3.60000000000000008882e+00
  +3.60000000000000008882e+00
  +3.60000000000000008882e+00
  +3.60000000000000008882e+00
  +3.60000000000000008882e+00
  +3.60000000000000008882e+00
  +3.60000000000000008882e+00
  +3.60000000000000008882e+00
  +3.60000000000000008882e+00
  +3.60000000000000008882e+00
  +3.60000000000000008882e+00
  +3.60000000000000008882e+00
  +3.60000000000000008882e+00
  +3.60000000000000008882e+00
  +3.60000000000000008882e+00
  +3.60000000000000008882e+00
  +3.60000000000000008882e+00
  +3.60000000000000008882e+00
  +3.60000000000000008882e+00
  +3.60000000000000008882e+00
  +3.60000000000000008882e+00
  +3.60000000000000008882e+00
  +3.60000000000000008882e+00
  +3.60000000000000008882e+00
  +3.60000000000000008882e+00
  +3.60000000000000008882e+00
  +3.60000000000000008882e+00
  +3.60000000000000008882e+00
  +3.60000000000000008882e+00
  +3.60000000000000008882e+00
  +3.60000000000000008882e+00
