<Qucs Dataset 1.0.7>
<indep time 200>
  +0.00000000000000000000e+00
  +4.02010050251256322029e-03
  +8.04020100502512644058e-03
  +1.20603015075376896609e-02
  +1.60804020100502528812e-02
  +2.01005025125628178362e-02
  +2.41206030150753793218e-02
  +2.81407035175879408073e-02
  +3.21608040201005057623e-02
  +3.61809045226130707174e-02
  +4.02010050251256356724e-02
  +4.42211055276381936885e-02
  +4.82412060301507586435e-02
  +5.22613065326633235985e-02
  +5.62814070351758816146e-02
  +6.03015075376884465697e-02
  +6.43216080402010115247e-02
  +6.83417085427135695408e-02
  +7.23618090452261414347e-02
  +7.63819095477386994508e-02
  +8.04020100502512713447e-02
  +8.44221105527638293609e-02
  +8.84422110552763873770e-02
  +9.24623115577889592709e-02
  +9.64824120603015172870e-02
  +1.00502512562814075303e-01
  +1.04522613065326647197e-01
  +1.08542713567839205213e-01
  +1.12562814070351763229e-01
  +1.16582914572864335123e-01
  +1.20603015075376893139e-01
  +1.24623115577889465033e-01
  +1.28643216080402023049e-01
  +1.32663316582914581065e-01
  +1.36683417085427139082e-01
  +1.40703517587939724853e-01
  +1.44723618090452282869e-01
  +1.48743718592964840886e-01
  +1.52763819095477398902e-01
  +1.56783919597989956918e-01
  +1.60804020100502542689e-01
  +1.64824120603015100706e-01
  +1.68844221105527658722e-01
  +1.72864321608040216738e-01
  +1.76884422110552774754e-01
  +1.80904522613065332770e-01
  +1.84924623115577918542e-01
  +1.88944723618090476558e-01
  +1.92964824120603034574e-01
  +1.96984924623115592590e-01
  +2.01005025125628150606e-01
  +2.05025125628140736378e-01
  +2.09045226130653294394e-01
  +2.13065326633165852410e-01
  +2.17085427135678410426e-01
  +2.21105527638190968442e-01
  +2.25125628140703526459e-01
  +2.29145728643216112230e-01
  +2.33165829145728670246e-01
  +2.37185929648241228263e-01
  +2.41206030150753786279e-01
  +2.45226130653266344295e-01
  +2.49246231155778930066e-01
  +2.53266331658291488083e-01
  +2.57286432160804046099e-01
  +2.61306532663316604115e-01
  +2.65326633165829162131e-01
  +2.69346733668341720147e-01
  +2.73366834170854278163e-01
  +2.77386934673366836179e-01
  +2.81407035175879449707e-01
  +2.85427135678392007723e-01
  +2.89447236180904565739e-01
  +2.93467336683417123755e-01
  +2.97487437185929681771e-01
  +3.01507537688442239787e-01
  +3.05527638190954797803e-01
  +3.09547738693467355819e-01
  +3.13567839195979913836e-01
  +3.17587939698492471852e-01
  +3.21608040201005085379e-01
  +3.25628140703517643395e-01
  +3.29648241206030201411e-01
  +3.33668341708542759427e-01
  +3.37688442211055317443e-01
  +3.41708542713567875460e-01
  +3.45728643216080433476e-01
  +3.49748743718592991492e-01
  +3.53768844221105549508e-01
  +3.57788944723618107524e-01
  +3.61809045226130665540e-01
  +3.65829145728643279067e-01
  +3.69849246231155837084e-01
  +3.73869346733668395100e-01
  +3.77889447236180953116e-01
  +3.81909547738693511132e-01
  +3.85929648241206069148e-01
  +3.89949748743718627164e-01
  +3.93969849246231185180e-01
  +3.97989949748743743196e-01
  +4.02010050251256301213e-01
  +4.06030150753768859229e-01
  +4.10050251256281472756e-01
  +4.14070351758794030772e-01
  +4.18090452261306588788e-01
  +4.22110552763819146804e-01
  +4.26130653266331704820e-01
  +4.30150753768844262837e-01
  +4.34170854271356820853e-01
  +4.38190954773869378869e-01
  +4.42211055276381936885e-01
  +4.46231155778894494901e-01
  +4.50251256281407052917e-01
  +4.54271356783919666444e-01
  +4.58291457286432224461e-01
  +4.62311557788944782477e-01
  +4.66331658291457340493e-01
  +4.70351758793969898509e-01
  +4.74371859296482456525e-01
  +4.78391959798995014541e-01
  +4.82412060301507572557e-01
  +4.86432160804020130573e-01
  +4.90452261306532688589e-01
  +4.94472361809045302117e-01
  +4.98492462311557860133e-01
  +5.02512562814070418149e-01
  +5.06532663316582976165e-01
  +5.10552763819095534181e-01
  +5.14572864321608092197e-01
  +5.18592964824120650214e-01
  +5.22613065326633208230e-01
  +5.26633165829145766246e-01
  +5.30653266331658324262e-01
  +5.34673366834170882278e-01
  +5.38693467336683440294e-01
  +5.42713567839195998310e-01
  +5.46733668341708556326e-01
  +5.50753768844221114342e-01
  +5.54773869346733672359e-01
  +5.58793969849246341397e-01
  +5.62814070351758899413e-01
  +5.66834170854271457429e-01
  +5.70854271356784015445e-01
  +5.74874371859296573462e-01
  +5.78894472361809131478e-01
  +5.82914572864321689494e-01
  +5.86934673366834247510e-01
  +5.90954773869346805526e-01
  +5.94974874371859363542e-01
  +5.98994974874371921558e-01
  +6.03015075376884479574e-01
  +6.07035175879397037590e-01
  +6.11055276381909595607e-01
  +6.15075376884422153623e-01
  +6.19095477386934711639e-01
  +6.23115577889447269655e-01
  +6.27135678391959827671e-01
  +6.31155778894472385687e-01
  +6.35175879396984943703e-01
  +6.39195979899497501719e-01
  +6.43216080402010170758e-01
  +6.47236180904522728774e-01
  +6.51256281407035286790e-01
  +6.55276381909547844806e-01
  +6.59296482412060402822e-01
  +6.63316582914572960838e-01
  +6.67336683417085518855e-01
  +6.71356783919598076871e-01
  +6.75376884422110634887e-01
  +6.79396984924623192903e-01
  +6.83417085427135750919e-01
  +6.87437185929648308935e-01
  +6.91457286432160866951e-01
  +6.95477386934673424967e-01
  +6.99497487437185982984e-01
  +7.03517587939698541000e-01
  +7.07537688442211099016e-01
  +7.11557788944723657032e-01
  +7.15577889447236215048e-01
  +7.19597989949748773064e-01
  +7.23618090452261331080e-01
  +7.27638190954773889096e-01
  +7.31658291457286558135e-01
  +7.35678391959799116151e-01
  +7.39698492462311674167e-01
  +7.43718592964824232183e-01
  +7.47738693467336790199e-01
  +7.51758793969849348215e-01
  +7.55778894472361906232e-01
  +7.59798994974874464248e-01
  +7.63819095477387022264e-01
  +7.67839195979899580280e-01
  +7.71859296482412138296e-01
  +7.75879396984924696312e-01
  +7.79899497487437254328e-01
  +7.83919597989949812344e-01
  +7.87939698492462370361e-01
  +7.91959798994974928377e-01
  +7.95979899497487486393e-01
  +8.00000000000000044409e-01
</indep>
<dep V1.It time>
  -3.82681614060882968609e-02
  -3.82681614060882968609e-02
  -3.82681614060882968609e-02
  -3.82681614060882968609e-02
  -3.82681614060882968609e-02
  -3.82681614060882968609e-02
  -3.82681614060882968609e-02
  -3.82681614060882968609e-02
  -3.82681614060882968609e-02
  -3.82681614060882968609e-02
  -3.82681614060882968609e-02
  -3.82681614060882968609e-02
  -3.82681614060882968609e-02
  -3.82681614060882968609e-02
  -3.82681614060882968609e-02
  -3.82681614060882968609e-02
  -3.82681614060882968609e-02
  -3.82681614060882968609e-02
  -3.82681614060882968609e-02
  -3.82681614060882968609e-02
  -3.82681614060882968609e-02
  -3.82681614060882968609e-02
  -3.82681614060882968609e-02
  -3.82681614060882968609e-02
  -3.82681614060882968609e-02
  -4.22673177722448709104e-02
  -4.22673177722448847882e-02
  -4.22673177722448709104e-02
  -4.22673177722448778493e-02
  -4.22673177722448778493e-02
  -4.22673177722448847882e-02
  -4.22673177722448847882e-02
  -4.22673177722448709104e-02
  -4.22673177722448709104e-02
  -4.22673177722448709104e-02
  -4.22673177722448847882e-02
  -4.22673177722448847882e-02
  -4.22673177722448709104e-02
  -4.22673177722448709104e-02
  -4.22673177722448778493e-02
  -4.22673177722448847882e-02
  -4.22673177722448847882e-02
  -4.22673177722448709104e-02
  -4.22673177722448709104e-02
  -4.22673177722448709104e-02
  -4.22673177722448847882e-02
  -4.22673177722448847882e-02
  -4.22673177722448709104e-02
  -4.22673177722448709104e-02
  -4.22673177722448709104e-02
  -3.45382485646740788887e-02
  -3.45382485646740788887e-02
  -3.45382485646740788887e-02
  -3.45382485646740788887e-02
  -3.45382485646740788887e-02
  -3.45382485646740788887e-02
  -3.45382485646740788887e-02
  -3.45382485646740788887e-02
  -3.45382485646740788887e-02
  -3.45382485646740788887e-02
  -3.45382485646740788887e-02
  -3.45382485646740788887e-02
  -3.45382485646740788887e-02
  -3.45382485646740788887e-02
  -3.45382485646740788887e-02
  -3.45382485646740788887e-02
  -3.45382485646740788887e-02
  -3.45382485646740788887e-02
  -3.45382485646740788887e-02
  -3.45382485646740788887e-02
  -3.45382485646740788887e-02
  -3.45382485646740788887e-02
  -3.45382485646740788887e-02
  -3.45382485646740788887e-02
  -3.45382485646740788887e-02
  -3.85374049308306251826e-02
  -3.85374049308306251826e-02
  -3.85374049308306251826e-02
  -3.85374049308306251826e-02
  -3.85374049308306251826e-02
  -3.85374049308306251826e-02
  -3.85374049308306251826e-02
  -3.85374049308306251826e-02
  -3.85374049308306251826e-02
  -3.85374049308306251826e-02
  -3.85374049308306251826e-02
  -3.85374049308306251826e-02
  -3.85374049308306251826e-02
  -3.85374049308306251826e-02
  -3.85374049308306251826e-02
  -3.85374049308306251826e-02
  -3.85374049308306251826e-02
  -3.85374049308306251826e-02
  -3.85374049308306251826e-02
  -3.85374049308306251826e-02
  -3.85374049308306251826e-02
  -3.85374049308306251826e-02
  -3.85374049308306251826e-02
  -3.85374049308306251826e-02
  -3.85374049308306251826e-02
  -4.22959616563623880259e-02
  -4.22959616563623880259e-02
  -4.22959616563623880259e-02
  -4.22959616563623880259e-02
  -4.22959616563623880259e-02
  -4.22959616563623880259e-02
  -4.22959616563623880259e-02
  -4.22959616563623880259e-02
  -4.22959616563623880259e-02
  -4.22959616563623880259e-02
  -4.22959616563623880259e-02
  -4.22959616563623880259e-02
  -4.22959616563623880259e-02
  -4.22959616563623880259e-02
  -4.22959616563623880259e-02
  -4.22959616563623880259e-02
  -4.22959616563623880259e-02
  -4.22959616563623880259e-02
  -4.22959616563623880259e-02
  -4.22959616563623880259e-02
  -4.22959616563623880259e-02
  -4.22959616563623880259e-02
  -4.22959616563623880259e-02
  -4.22959616563623880259e-02
  -4.22959616563623880259e-02
  -3.85660488149482741371e-02
  -3.85660488149482741371e-02
  -3.85660488149482741371e-02
  -3.85660488149482741371e-02
  -3.85660488149482741371e-02
  -3.85660488149482741371e-02
  -3.85660488149482741371e-02
  -3.85660488149482741371e-02
  -3.85660488149482741371e-02
  -3.85660488149482741371e-02
  -3.85660488149482741371e-02
  -3.85660488149482741371e-02
  -3.85660488149482741371e-02
  -3.85660488149482741371e-02
  -3.85660488149482741371e-02
  -3.85660488149482741371e-02
  -3.85660488149482741371e-02
  -3.85660488149482741371e-02
  -3.85660488149482741371e-02
  -3.85660488149482741371e-02
  -3.85660488149482741371e-02
  -3.85660488149482741371e-02
  -3.85660488149482741371e-02
  -3.85660488149482741371e-02
  -3.85660488149482741371e-02
  -4.63067997428295435869e-02
  -4.63067997428295435869e-02
  -4.63067997428295435869e-02
  -4.63067997428295435869e-02
  -4.63067997428295435869e-02
  -4.63067997428295435869e-02
  -4.63067997428295435869e-02
  -4.63067997428295435869e-02
  -4.63067997428295435869e-02
  -4.63067997428295435869e-02
  -4.63067997428295435869e-02
  -4.63067997428295435869e-02
  -4.63067997428295435869e-02
  -4.63067997428295435869e-02
  -4.63067997428295435869e-02
  -4.63067997428295435869e-02
  -4.63067997428295435869e-02
  -4.63067997428295435869e-02
  -4.63067997428295435869e-02
  -4.63067997428295435869e-02
  -4.63067997428295435869e-02
  -4.63067997428295435869e-02
  -4.63067997428295435869e-02
  -4.63067997428295435869e-02
  -4.63067997428295435869e-02
  -4.25768869014154158203e-02
  -4.25768869014154158203e-02
  -4.25768869014154158203e-02
  -4.25768869014154158203e-02
  -4.25768869014154227592e-02
  -4.25768869014154158203e-02
  -4.25768869014154158203e-02
  -4.25768869014154158203e-02
  -4.25768869014154158203e-02
  -4.25768869014154227592e-02
  -4.25768869014154227592e-02
  -4.25768869014154158203e-02
  -4.25768869014154158203e-02
  -4.25768869014154158203e-02
  -4.25768869014154158203e-02
  -4.25768869014154158203e-02
  -4.25768869014154158203e-02
  -4.25768869014154158203e-02
  -4.25768869014154158203e-02
  -4.25768869014154158203e-02
  -4.25768869014154158203e-02
  -4.25768869014154158203e-02
  -4.25768869014154158203e-02
  -4.25768869014154158203e-02
  -4.25768869014133341522e-02
</dep>
<dep V2.It time>
  -0.00000000000000000000e+00
  -0.00000000000000000000e+00
  -0.00000000000000000000e+00
  -0.00000000000000000000e+00
  -0.00000000000000000000e+00
  -0.00000000000000000000e+00
  -0.00000000000000000000e+00
  -0.00000000000000000000e+00
  -0.00000000000000000000e+00
  -0.00000000000000000000e+00
  -0.00000000000000000000e+00
  -0.00000000000000000000e+00
  -0.00000000000000000000e+00
  -0.00000000000000000000e+00
  -0.00000000000000000000e+00
  -0.00000000000000000000e+00
  -0.00000000000000000000e+00
  -0.00000000000000000000e+00
  -0.00000000000000000000e+00
  -0.00000000000000000000e+00
  -0.00000000000000000000e+00
  -0.00000000000000000000e+00
  -0.00000000000000000000e+00
  -0.00000000000000000000e+00
  -0.00000000000000000000e+00
  -0.00000000000000000000e+00
  -0.00000000000000000000e+00
  -0.00000000000000000000e+00
  -0.00000000000000000000e+00
  -0.00000000000000000000e+00
  -0.00000000000000000000e+00
  -0.00000000000000000000e+00
  -0.00000000000000000000e+00
  -0.00000000000000000000e+00
  -0.00000000000000000000e+00
  -0.00000000000000000000e+00
  -0.00000000000000000000e+00
  -0.00000000000000000000e+00
  -0.00000000000000000000e+00
  -0.00000000000000000000e+00
  -0.00000000000000000000e+00
  -0.00000000000000000000e+00
  -0.00000000000000000000e+00
  -0.00000000000000000000e+00
  -0.00000000000000000000e+00
  -0.00000000000000000000e+00
  -0.00000000000000000000e+00
  -0.00000000000000000000e+00
  -0.00000000000000000000e+00
  -0.00000000000000000000e+00
  -0.00000000000000000000e+00
  -0.00000000000000000000e+00
  -0.00000000000000000000e+00
  -0.00000000000000000000e+00
  -0.00000000000000000000e+00
  -0.00000000000000000000e+00
  -0.00000000000000000000e+00
  -0.00000000000000000000e+00
  -0.00000000000000000000e+00
  -0.00000000000000000000e+00
  -0.00000000000000000000e+00
  -0.00000000000000000000e+00
  -0.00000000000000000000e+00
  -0.00000000000000000000e+00
  -0.00000000000000000000e+00
  -0.00000000000000000000e+00
  -0.00000000000000000000e+00
  -0.00000000000000000000e+00
  -0.00000000000000000000e+00
  -0.00000000000000000000e+00
  -0.00000000000000000000e+00
  -0.00000000000000000000e+00
  -0.00000000000000000000e+00
  -0.00000000000000000000e+00
  -0.00000000000000000000e+00
  -0.00000000000000000000e+00
  -0.00000000000000000000e+00
  -0.00000000000000000000e+00
  -0.00000000000000000000e+00
  -0.00000000000000000000e+00
  -0.00000000000000000000e+00
  -0.00000000000000000000e+00
  -0.00000000000000000000e+00
  -0.00000000000000000000e+00
  -0.00000000000000000000e+00
  -0.00000000000000000000e+00
  -0.00000000000000000000e+00
  -0.00000000000000000000e+00
  -0.00000000000000000000e+00
  -0.00000000000000000000e+00
  -0.00000000000000000000e+00
  -0.00000000000000000000e+00
  -0.00000000000000000000e+00
  -0.00000000000000000000e+00
  -0.00000000000000000000e+00
  -0.00000000000000000000e+00
  -0.00000000000000000000e+00
  -0.00000000000000000000e+00
  -0.00000000000000000000e+00
  -0.00000000000000000000e+00
  -0.00000000000000000000e+00
  -0.00000000000000000000e+00
  -0.00000000000000000000e+00
  -0.00000000000000000000e+00
  -0.00000000000000000000e+00
  -0.00000000000000000000e+00
  -0.00000000000000000000e+00
  -0.00000000000000000000e+00
  -0.00000000000000000000e+00
  -0.00000000000000000000e+00
  -0.00000000000000000000e+00
  -0.00000000000000000000e+00
  -0.00000000000000000000e+00
  -0.00000000000000000000e+00
  -0.00000000000000000000e+00
  -0.00000000000000000000e+00
  -0.00000000000000000000e+00
  -0.00000000000000000000e+00
  -0.00000000000000000000e+00
  -0.00000000000000000000e+00
  -0.00000000000000000000e+00
  -0.00000000000000000000e+00
  -0.00000000000000000000e+00
  -0.00000000000000000000e+00
  -0.00000000000000000000e+00
  -0.00000000000000000000e+00
  -0.00000000000000000000e+00
  -0.00000000000000000000e+00
  -0.00000000000000000000e+00
  -0.00000000000000000000e+00
  -0.00000000000000000000e+00
  -0.00000000000000000000e+00
  -0.00000000000000000000e+00
  -0.00000000000000000000e+00
  -0.00000000000000000000e+00
  -0.00000000000000000000e+00
  -0.00000000000000000000e+00
  -0.00000000000000000000e+00
  -0.00000000000000000000e+00
  -0.00000000000000000000e+00
  -0.00000000000000000000e+00
  -0.00000000000000000000e+00
  -0.00000000000000000000e+00
  -0.00000000000000000000e+00
  -0.00000000000000000000e+00
  -0.00000000000000000000e+00
  -0.00000000000000000000e+00
  -0.00000000000000000000e+00
  -0.00000000000000000000e+00
  -0.00000000000000000000e+00
  -0.00000000000000000000e+00
  -0.00000000000000000000e+00
  -0.00000000000000000000e+00
  -0.00000000000000000000e+00
  -0.00000000000000000000e+00
  -0.00000000000000000000e+00
  -0.00000000000000000000e+00
  -0.00000000000000000000e+00
  -0.00000000000000000000e+00
  -0.00000000000000000000e+00
  -0.00000000000000000000e+00
  -0.00000000000000000000e+00
  -0.00000000000000000000e+00
  -0.00000000000000000000e+00
  -0.00000000000000000000e+00
  -0.00000000000000000000e+00
  -0.00000000000000000000e+00
  -0.00000000000000000000e+00
  -0.00000000000000000000e+00
  -0.00000000000000000000e+00
  -0.00000000000000000000e+00
  -0.00000000000000000000e+00
  -0.00000000000000000000e+00
  -0.00000000000000000000e+00
  -0.00000000000000000000e+00
  -0.00000000000000000000e+00
  -0.00000000000000000000e+00
  -0.00000000000000000000e+00
  -0.00000000000000000000e+00
  -0.00000000000000000000e+00
  -0.00000000000000000000e+00
  -0.00000000000000000000e+00
  -0.00000000000000000000e+00
  -0.00000000000000000000e+00
  -0.00000000000000000000e+00
  -0.00000000000000000000e+00
  -0.00000000000000000000e+00
  -0.00000000000000000000e+00
  -0.00000000000000000000e+00
  -0.00000000000000000000e+00
  -0.00000000000000000000e+00
  -0.00000000000000000000e+00
  -0.00000000000000000000e+00
  -0.00000000000000000000e+00
  -0.00000000000000000000e+00
  -0.00000000000000000000e+00
  -0.00000000000000000000e+00
  -0.00000000000000000000e+00
  -0.00000000000000000000e+00
  -0.00000000000000000000e+00
</dep>
<dep V3.It time>
  +4.35871087323237197703e-16
  +4.35871087323237148399e-16
  +4.35871087323237000488e-16
  +4.35871087323237000488e-16
  +4.35871087323237000488e-16
  +4.35871087323237000488e-16
  +4.35871087323237000488e-16
  +4.35871087323237000488e-16
  +4.35871087323237000488e-16
  +4.35871087323237000488e-16
  +4.35871087323237000488e-16
  +4.35871087323237000488e-16
  +4.35871087323237000488e-16
  +4.35871087323237000488e-16
  +4.35871087323237000488e-16
  +4.35871087323237000488e-16
  +4.35871087323237000488e-16
  +4.35871087323237000488e-16
  +4.35871087323237000488e-16
  +4.35871087323237000488e-16
  +4.35871087323237000488e-16
  +4.35871087323237000488e-16
  +4.35871087323237000488e-16
  +4.35871087323237000488e-16
  +4.35871087323237000488e-16
  +4.36306014491610613716e-16
  +4.36306014491610663020e-16
  +4.36306014491610613716e-16
  +4.36306014491610515108e-16
  +4.36306014491610712323e-16
  +4.36306014491610761627e-16
  +4.36306014491610663020e-16
  +4.36306014491610613716e-16
  +4.36306014491610761627e-16
  +4.36306014491610663020e-16
  +4.36306014491610613716e-16
  +4.36306014491610761627e-16
  +4.36306014491610663020e-16
  +4.36306014491610613716e-16
  +4.36306014491610761627e-16
  +4.36306014491610663020e-16
  +4.36306014491610613716e-16
  +4.36306014491610761627e-16
  +4.36306014491610663020e-16
  +4.36306014491610613716e-16
  +4.36306014491610761627e-16
  +4.36306014491610663020e-16
  +4.36306014491610613716e-16
  +4.36306014491610761627e-16
  +4.36306014491610663020e-16
  +7.20286421187012285709e-16
  +7.20286421187012285709e-16
  +7.20286421187012285709e-16
  +7.20286421187012285709e-16
  +7.20286421187012285709e-16
  +7.20286421187012285709e-16
  +7.20286421187012285709e-16
  +7.20286421187012285709e-16
  +7.20286421187012285709e-16
  +7.20286421187012285709e-16
  +7.20286421187012285709e-16
  +7.20286421187012285709e-16
