<Qucs Dataset 26.1.1>
<indep time 207>
0.000000000000e+00
5.527640000000e-06
1.105528000000e-05
2.211056000000e-05
4.422112000000e-05
8.844224000000e-05
1.768844800000e-04
3.537689600000e-04
7.075379200000e-04
1.260301920000e-03
1.813065920000e-03
2.365829920000e-03
2.918593920000e-03
3.471357920000e-03
4.024121920000e-03
4.576885920000e-03
5.129649920000e-03
5.682413920000e-03
6.235177920000e-03
6.787941920000e-03
7.340705920000e-03
7.893469920000e-03
8.446233920000e-03
8.998997920000e-03
9.551761920000e-03
1.010452592000e-02
1.065728992000e-02
1.121005392000e-02
1.176281792000e-02
1.231558192000e-02
1.286834592000e-02
1.342110992000e-02
1.397387392000e-02
1.452663792000e-02
1.507940192000e-02
1.563216592000e-02
1.618492992000e-02
1.673769392000e-02
1.729045792000e-02
1.784322192000e-02
1.839598592000e-02
1.894874992000e-02
1.950151392000e-02
2.005427792000e-02
2.060704192000e-02
2.115980592000e-02
2.171256992000e-02
2.226533392000e-02
2.281809792000e-02
2.337086192000e-02
2.392362592000e-02
2.447638992000e-02
2.502915392000e-02
2.558191792000e-02
2.613468192000e-02
2.668744592000e-02
2.724020992000e-02
2.779297392000e-02
2.834573792000e-02
2.889850192000e-02
2.945126592000e-02
3.000402992000e-02
3.055679392000e-02
3.110955792000e-02
3.166232192000e-02
3.221508592000e-02
3.276784992000e-02
3.332061392000e-02
3.387337792000e-02
3.442614192000e-02
3.497890592000e-02
3.553166992000e-02
3.608443392000e-02
3.663719792000e-02
3.718996192000e-02
3.774272592000e-02
3.829548992000e-02
3.884825392000e-02
3.940101792000e-02
3.995378192000e-02
4.050654592000e-02
4.105930992000e-02
4.161207392000e-02
4.216483792000e-02
4.271760192000e-02
4.327036592000e-02
4.382312992000e-02
4.437589392000e-02
4.492865792000e-02
4.548142192000e-02
4.603418592000e-02
4.658694992000e-02
4.713971392000e-02
4.769247792000e-02
4.824524192000e-02
4.879800592000e-02
4.935076992000e-02
4.990353392000e-02
5.045629792000e-02
5.100906192000e-02
5.156182592000e-02
5.211458992000e-02
5.266735392000e-02
5.322011792000e-02
5.377288192000e-02
5.432564592000e-02
5.487840992000e-02
5.543117392000e-02
5.598393792000e-02
5.653670192000e-02
5.708946592000e-02
5.764222992000e-02
5.819499392000e-02
5.874775792000e-02
5.930052192000e-02
5.985328592000e-02
6.040604992000e-02
6.095881392000e-02
6.151157792000e-02
6.206434192000e-02
6.261710592000e-02
6.316986992000e-02
6.372263392000e-02
6.427539792000e-02
6.482816192000e-02
6.538092592000e-02
6.593368992000e-02
6.648645392000e-02
6.703921792000e-02
6.759198192000e-02
6.814474592000e-02
6.869750992000e-02
6.925027392000e-02
6.980303792000e-02
7.035580192000e-02
7.090856592000e-02
7.146132992000e-02
7.201409392000e-02
7.256685792000e-02
7.311962192000e-02
7.367238592000e-02
7.422514992000e-02
7.477791392000e-02
7.533067792000e-02
7.588344192000e-02
7.643620592000e-02
7.698896992000e-02
7.754173392000e-02
7.809449792000e-02
7.864726192000e-02
7.920002592000e-02
7.975278992000e-02
8.030555392000e-02
8.085831792000e-02
8.141108192000e-02
8.196384592000e-02
8.251660992000e-02
8.306937392000e-02
8.362213792000e-02
8.417490192000e-02
8.472766592000e-02
8.528042992000e-02
8.583319392000e-02
8.638595792000e-02
8.693872192000e-02
8.749148592000e-02
8.804424992000e-02
8.859701392000e-02
8.914977792000e-02
8.970254192000e-02
9.025530592000e-02
9.080806992000e-02
9.136083392000e-02
9.191359792000e-02
9.246636192000e-02
9.301912592000e-02
9.357188992000e-02
9.412465392000e-02
9.467741792000e-02
9.523018192000e-02
9.578294592000e-02
9.633570992000e-02
9.688847392000e-02
9.744123792000e-02
9.799400192000e-02
9.854676592000e-02
9.909952992000e-02
9.965229392000e-02
1.002050579200e-01
1.007578219200e-01
1.013105859200e-01
1.018633499200e-01
1.024161139200e-01
1.029688779200e-01
1.035216419200e-01
1.040744059200e-01
1.046271699200e-01
1.051799339200e-01
1.057326979200e-01
1.062854619200e-01
1.068382259200e-01
1.073909899200e-01
1.079437539200e-01
1.084965179200e-01
1.090492819200e-01
1.095246409600e-01
1.100000000000e-01
</indep>
<dep tran.i(pr1) time>
1.173765824511e-02
1.173765815018e-02
1.173765815010e-02
1.173765814996e-02
1.173765814969e-02
1.173765814917e-02
1.173765814826e-02
1.173765814683e-02
1.173765814507e-02
1.173765814388e-02
1.173765814351e-02
1.173765814340e-02
1.173765814337e-02
1.173765814336e-02
1.173765814336e-02
1.173765814335e-02
1.173765814335e-02
1.173765814335e-02
1.173765814335e-02
1.173765814335e-02
1.173765814335e-02
1.173765814335e-02
1.173765814335e-02
1.173765814335e-02
1.173765814335e-02
1.173765814335e-02
1.173765814335e-02
1.173765814335e-02
1.173765814335e-02
1.173765814335e-02
1.173765814335e-02
1.173765814335e-02
1.173765814335e-02
1.173765814335e-02
1.173765814335e-02
1.173765814335e-02
1.173765814335e-02
1.173765814335e-02
1.173765814335e-02
1.173765814335e-02
1.173765814335e-02
1.173765814335e-02
1.173765814335e-02
1.173765814335e-02
1.173765814335e-02
1.173765814335e-02
1.173765814335e-02
1.173765814335e-02
1.173765814335e-02
1.173765814335e-02
1.173765814335e-02
1.173765814335e-02
1.173765814335e-02
1.173765814335e-02
1.173765814335e-02
1.173765814335e-02
1.173765814335e-02
1.173765814335e-02
1.173765814335e-02
1.173765814335e-02
1.173765814335e-02
1.173765814335e-02
1.173765814335e-02
1.173765814335e-02
1.173765814335e-02
1.173765814335e-02
1.173765814335e-02
1.173765814335e-02
1.173765814335e-02
1.173765814335e-02
1.173765814335e-02
1.173765814335e-02
1.173765814335e-02
1.173765814335e-02
1.173765814335e-02
1.173765814335e-02
1.173765814335e-02
1.173765814335e-02
1.173765814335e-02
1.173765814335e-02
1.173765814335e-02
1.173765814335e-02
1.173765814335e-02
1.173765814335e-02
1.173765814335e-02
1.173765814335e-02
1.173765814335e-02
1.173765814335e-02
1.173765814335e-02
1.173765814335e-02
1.173765814335e-02
1.173765814335e-02
1.173765814335e-02
1.173765814335e-02
1.173765814335e-02
1.173765814335e-02
1.173765814335e-02
1.173765814335e-02
1.173765814335e-02
1.173765814335e-02
1.173765814335e-02
1.173765814335e-02
1.173765814335e-02
1.173765814335e-02
1.173765814335e-02
1.173765814335e-02
1.173765814335e-02
1.173765814335e-02
1.173765814335e-02
1.173765814335e-02
1.173765814335e-02
1.173765814335e-02
1.173765814335e-02
1.173765814335e-02
1.173765814335e-02
1.173765814335e-02
1.173765814335e-02
1.173765814335e-02
1.173765814335e-02
1.173765814335e-02
1.173765814335e-02
1.173765814335e-02
1.173765814335e-02
1.173765814335e-02
1.173765814335e-02
1.173765814335e-02
1.173765814335e-02
1.173765814335e-02
1.173765814335e-02
1.173765814335e-02
1.173765814335e-02
1.173765814335e-02
1.173765814335e-02
1.173765814335e-02
1.173765814335e-02
1.173765814335e-02
1.173765814335e-02
1.173765814335e-02
1.173765814335e-02
1.173765814335e-02
1.173765814335e-02
1.173765814335e-02
1.173765814335e-02
1.173765814335e-02
1.173765814335e-02
1.173765814335e-02
1.173765814335e-02
1.173765814335e-02
1.173765814335e-02
1.173765814335e-02
1.173765814335e-02
1.173765814335e-02
1.173765814335e-02
1.173765814335e-02
1.173765814335e-02
1.173765814335e-02
1.173765814335e-02
1.173765814335e-02
1.173765814335e-02
1.173765814335e-02
1.173765814335e-02
1.173765814335e-02
1.173765814335e-02
1.173765814335e-02
1.173765814335e-02
1.173765814335e-02
1.173765814335e-02
1.173765814335e-02
1.173765814335e-02
1.173765814335e-02
1.173765814335e-02
1.173765814335e-02
1.173765814335e-02
1.173765814335e-02
1.173765814335e-02
1.173765814335e-02
1.173765814335e-02
1.173765814335e-02
1.173765814335e-02
1.173765814335e-02
1.173765814335e-02
1.173765814335e-02
1.173765814335e-02
1.173765814335e-02
1.173765814335e-02
1.173765814335e-02
1.173765814335e-02
1.173765814335e-02
1.173765814335e-02
1.173765814335e-02
1.173765814335e-02
1.173765814335e-02
1.173765814335e-02
1.173765814335e-02
1.173765814335e-02
1.173765814335e-02
1.173765814335e-02
1.173765814335e-02
1.173765814335e-02
1.173765814335e-02
1.173765814335e-02
1.173765814335e-02
1.173765814335e-02
1.173765814335e-02
1.173765814335e-02
1.173765814335e-02
1.173765814335e-02
</dep>
<dep tran.v(vcc) time>
3.600000000000e+00
3.600000000000e+00
3.600000000000e+00
3.600000000000e+00
3.600000000000e+00
3.600000000000e+00
3.600000000000e+00
3.600000000000e+00
3.600000000000e+00
3.600000000000e+00
3.600000000000e+00
3.600000000000e+00
3.600000000000e+00
3.600000000000e+00
3.600000000000e+00
3.600000000000e+00
3.600000000000e+00
3.600000000000e+00
3.600000000000e+00
3.600000000000e+00
3.600000000000e+00
3.600000000000e+00
3.600000000000e+00
3.600000000000e+00
3.600000000000e+00
3.600000000000e+00
3.600000000000e+00
3.600000000000e+00
3.600000000000e+00
3.600000000000e+00
3.600000000000e+00
3.600000000000e+00
3.600000000000e+00
3.600000000000e+00
3.600000000000e+00
3.600000000000e+00
3.600000000000e+00
3.600000000000e+00
3.600000000000e+00
3.600000000000e+00
3.600000000000e+00
3.600000000000e+00
3.600000000000e+00
3.600000000000e+00
3.600000000000e+00
3.600000000000e+00
3.600000000000e+00
3.600000000000e+00
3.600000000000e+00
3.600000000000e+00
3.600000000000e+00
3.600000000000e+00
3.600000000000e+00
3.600000000000e+00
3.600000000000e+00
3.600000000000e+00
3.600000000000e+00
3.600000000000e+00
3.600000000000e+00
3.600000000000e+00
3.600000000000e+00
3.600000000000e+00
3.600000000000e+00
3.600000000000e+00
3.600000000000e+00
3.600000000000e+00
3.600000000000e+00
3.600000000000e+00
3.600000000000e+00
3.600000000000e+00
3.600000000000e+00
3.600000000000e+00
3.600000000000e+00
3.600000000000e+00
3.600000000000e+00
3.600000000000e+00
3.600000000000e+00
3.600000000000e+00
3.600000000000e+00
3.600000000000e+00
3.600000000000e+00
3.600000000000e+00
3.600000000000e+00
3.600000000000e+00
3.600000000000e+00
3.600000000000e+00
3.600000000000e+00
3.600000000000e+00
3.600000000000e+00
3.600000000000e+00
3.600000000000e+00
3.600000000000e+00
3.600000000000e+00
3.600000000000e+00
3.600000000000e+00
3.600000000000e+00
3.600000000000e+00
3.600000000000e+00
3.600000000000e+00
3.600000000000e+00
3.600000000000e+00
3.600000000000e+00
3.600000000000e+00
3.600000000000e+00
3.600000000000e+00
3.600000000000e+00
3.600000000000e+00
3.600000000000e+00
3.600000000000e+00
3.600000000000e+00
3.600000000000e+00
3.600000000000e+00
3.600000000000e+00
3.600000000000e+00
3.600000000000e+00
3.600000000000e+00
3.600000000000e+00
3.600000000000e+00
3.600000000000e+00
3.600000000000e+00
3.600000000000e+00
3.600000000000e+00
3.600000000000e+00
3.600000000000e+00
3.600000000000e+00
3.600000000000e+00
3.600000000000e+00
3.600000000000e+00
3.600000000000e+00
3.600000000000e+00
3.600000000000e+00
3.600000000000e+00
3.600000000000e+00
3.600000000000e+00
3.600000000000e+00
3.600000000000e+00
3.600000000000e+00
3.600000000000e+00
3.600000000000e+00
3.600000000000e+00
3.600000000000e+00
3.600000000000e+00
3.600000000000e+00
3.600000000000e+00
3.600000000000e+00
3.600000000000e+00
3.600000000000e+00
3.600000000000e+00
3.600000000000e+00
3.600000000000e+00
3.600000000000e+00
3.600000000000e+00
3.600000000000e+00
3.600000000000e+00
3.600000000000e+00
3.600000000000e+00
3.600000000000e+00
3.600000000000e+00
3.600000000000e+00
3.600000000000e+00
3.600000000000e+00
3.600000000000e+00
3.600000000000e+00
3.600000000000e+00
3.600000000000e+00
3.600000000000e+00
3.600000000000e+00
3.600000000000e+00
3.600000000000e+00
3.600000000000e+00
3.600000000000e+00
3.600000000000e+00
3.600000000000e+00
3.600000000000e+00
3.600000000000e+00
3.600000000000e+00
3.600000000000e+00
3.600000000000e+00
3.600000000000e+00
3.600000000000e+00
3.600000000000e+00
3.600000000000e+00
3.600000000000e+00
3.600000000000e+00
3.600000000000e+00
3.600000000000e+00
3.600000000000e+00
3.600000000000e+00
3.600000000000e+00
3.600000000000e+00
3.600000000000e+00
3.600000000000e+00
3.600000000000e+00
3.600000000000e+00
3.600000000000e+00
3.600000000000e+00
3.600000000000e+00
3.600000000000e+00
3.600000000000e+00
3.600000000000e+00
3.600000000000e+00
3.600000000000e+00
3.600000000000e+00
3.600000000000e+00
3.600000000000e+00
3.600000000000e+00
3.600000000000e+00
</dep>
<dep tran.v(out_astable100) time>
7.761949318961e-02
7.761952109749e-02
7.761952114665e-02
7.761952124394e-02
7.761952143242e-02
7.761952178632e-02
7.761952241085e-02
7.761952338742e-02
7.761952459661e-02
7.761952541021e-02
7.761952565887e-02
7.761952573487e-02
7.761952575809e-02
7.761952576520e-02
7.761952576737e-02
7.761952576803e-02
7.761952576823e-02
7.761952576829e-02
7.761952576831e-02
7.761952576832e-02
7.761952576832e-02
7.761952576832e-02
7.761952576832e-02
7.761952576832e-02
7.761952576832e-02
7.761952576832e-02
7.761952576832e-02
7.761952576832e-02
7.761952576832e-02
7.761952576832e-02
7.761952576832e-02
7.761952576832e-02
7.761952576832e-02
7.761952576832e-02
7.761952576832e-02
7.761952576832e-02
7.761952576832e-02
7.761952576832e-02
7.761952576832e-02
7.761952576832e-02
7.761952576832e-02
7.761952576832e-02
7.761952576832e-02
7.761952576832e-02
7.761952576832e-02
7.761952576832e-02
7.761952576832e-02
7.761952576832e-02
7.761952576832e-02
7.761952576832e-02
7.761952576832e-02
7.761952576832e-02
7.761952576832e-02
7.761952576832e-02
7.761952576832e-02
7.761952576832e-02
7.761952576832e-02
7.761952576832e-02
7.761952576832e-02
7.761952576832e-02
7.761952576832e-02
7.761952576832e-02
7.761952576832e-02
7.761952576832e-02
7.761952576832e-02
7.761952576832e-02
7.761952576832e-02
7.761952576832e-02
7.761952576832e-02
7.761952576832e-02
7.761952576832e-02
7.761952576832e-02
7.761952576832e-02
7.761952576832e-02
7.761952576832e-02
7.761952576832e-02
7.761952576832e-02
7.761952576832e-02
7.761952576832e-02
7.761952576832e-02
7.761952576832e-02
7.761952576832e-02
7.761952576832e-02
7.761952576832e-02
7.761952576832e-02
7.761952576832e-02
7.761952576832e-02
7.761952576832e-02
7.761952576832e-02
7.761952576832e-02
7.761952576832e-02
7.761952576832e-02
7.761952576832e-02
7.761952576832e-02
7.761952576832e-02
7.761952576832e-02
7.761952576832e-02
7.761952576832e-02
7.761952576832e-02
7.761952576832e-02
7.761952576832e-02
7.761952576832e-02
7.761952576832e-02
7.761952576832e-02
7.761952576832e-02
7.761952576832e-02
7.761952576832e-02
7.761952576832e-02
7.761952576832e-02
7.761952576832e-02
7.761952576832e-02
7.761952576832e-02
7.761952576832e-02
7.761952576832e-02
7.761952576832e-02
7.761952576832e-02
7.761952576832e-02
7.761952576832e-02
7.761952576832e-02
7.761952576832e-02
7.761952576832e-02
7.761952576832e-02
7.761952576832e-02
7.761952576832e-02
7.761952576832e-02
7.761952576832e-02
7.761952576832e-02
7.761952576832e-02
7.761952576832e-02
7.761952576832e-02
7.761952576832e-02
7.761952576832e-02
7.761952576832e-02
7.761952576832e-02
7.761952576832e-02
7.761952576832e-02
7.761952576832e-02
7.761952576832e-02
7.761952576832e-02
7.761952576832e-02
7.761952576832e-02
7.761952576832e-02
7.761952576832e-02
7.761952576832e-02
7.761952576832e-02
7.761952576832e-02
7.761952576832e-02
7.761952576832e-02
7.761952576832e-02
7.761952576832e-02
7.761952576832e-02
7.761952576832e-02
7.761952576832e-02
7.761952576832e-02
7.761952576832e-02
7.761952576832e-02
7.761952576832e-02
7.761952576832e-02
7.761952576832e-02
7.761952576832e-02
7.761952576832e-02
7.761952576832e-02
7.761952576832e-02
7.761952576832e-02
7.761952576832e-02
7.761952576832e-02
7.761952576832e-02
7.761952576832e-02
7.761952576832e-02
7.761952576832e-02
7.761952576832e-02
7.761952576832e-02
7.761952576832e-02
7.761952576832e-02
7.761952576832e-02
7.761952576832e-02
7.761952576832e-02
7.761952576832e-02
7.761952576832e-02
7.761952576832e-02
7.761952576832e-02
7.761952576832e-02
7.761952576832e-02
7.761952576832e-02
7.761952576832e-02
7.761952576832e-02
7.761952576832e-02
7.761952576832e-02
7.761952576832e-02
7.761952576832e-02
7.761952576832e-02
7.761952576832e-02
7.761952576832e-02
7.761952576832e-02
7.761952576832e-02
7.761952576832e-02
7.761952576832e-02
7.761952576832e-02
7.761952576832e-02
7.761952576832e-02
7.761952576832e-02
7.761952576832e-02
7.761952576832e-02
7.761952576832e-02
7.761952576832e-02
7.761952576832e-02
7.761952576832e-02
</dep>
