<Qucs Dataset 1.0.7>
<indep time 200>
  +0.00000000000000000000e+00
  +4.02010050251256322029e-03
  +8.04020100502512644058e-03
  +1.20603015075376896609e-02
  +1.60804020100502528812e-02
  +2.01005025125628178362e-02
  +2.41206030150753793218e-02
  +2.81407035175879408073e-02
  +3.21608040201005057623e-02
  +3.61809045226130707174e-02
  +4.02010050251256356724e-02
  +4.42211055276381936885e-02
  +4.82412060301507586435e-02
  +5.22613065326633235985e-02
  +5.62814070351758816146e-02
  +6.03015075376884465697e-02
  +6.43216080402010115247e-02
  +6.83417085427135695408e-02
  +7.23618090452261414347e-02
  +7.63819095477386994508e-02
  +8.04020100502512713447e-02
  +8.44221105527638293609e-02
  +8.84422110552763873770e-02
  +9.24623115577889592709e-02
  +9.64824120603015172870e-02
  +1.00502512562814075303e-01
  +1.04522613065326647197e-01
  +1.08542713567839205213e-01
  +1.12562814070351763229e-01
  +1.16582914572864335123e-01
  +1.20603015075376893139e-01
  +1.24623115577889465033e-01
  +1.28643216080402023049e-01
  +1.32663316582914581065e-01
  +1.36683417085427139082e-01
  +1.40703517587939724853e-01
  +1.44723618090452282869e-01
  +1.48743718592964840886e-01
  +1.52763819095477398902e-01
  +1.56783919597989956918e-01
  +1.60804020100502542689e-01
  +1.64824120603015100706e-01
  +1.68844221105527658722e-01
  +1.72864321608040216738e-01
  +1.76884422110552774754e-01
  +1.80904522613065332770e-01
  +1.84924623115577918542e-01
  +1.88944723618090476558e-01
  +1.92964824120603034574e-01
  +1.96984924623115592590e-01
  +2.01005025125628150606e-01
  +2.05025125628140736378e-01
  +2.09045226130653294394e-01
  +2.13065326633165852410e-01
  +2.17085427135678410426e-01
  +2.21105527638190968442e-01
  +2.25125628140703526459e-01
  +2.29145728643216112230e-01
  +2.33165829145728670246e-01
  +2.37185929648241228263e-01
  +2.41206030150753786279e-01
  +2.45226130653266344295e-01
  +2.49246231155778930066e-01
  +2.53266331658291488083e-01
  +2.57286432160804046099e-01
  +2.61306532663316604115e-01
  +2.65326633165829162131e-01
  +2.69346733668341720147e-01
  +2.73366834170854278163e-01
  +2.77386934673366836179e-01
  +2.81407035175879449707e-01
  +2.85427135678392007723e-01
  +2.89447236180904565739e-01
  +2.93467336683417123755e-01
  +2.97487437185929681771e-01
  +3.01507537688442239787e-01
  +3.05527638190954797803e-01
  +3.09547738693467355819e-01
  +3.13567839195979913836e-01
  +3.17587939698492471852e-01
  +3.21608040201005085379e-01
  +3.25628140703517643395e-01
  +3.29648241206030201411e-01
  +3.33668341708542759427e-01
  +3.37688442211055317443e-01
  +3.41708542713567875460e-01
  +3.45728643216080433476e-01
  +3.49748743718592991492e-01
  +3.53768844221105549508e-01
  +3.57788944723618107524e-01
  +3.61809045226130665540e-01
  +3.65829145728643279067e-01
  +3.69849246231155837084e-01
  +3.73869346733668395100e-01
  +3.77889447236180953116e-01
  +3.81909547738693511132e-01
  +3.85929648241206069148e-01
  +3.89949748743718627164e-01
  +3.93969849246231185180e-01
  +3.97989949748743743196e-01
  +4.02010050251256301213e-01
  +4.06030150753768859229e-01
  +4.10050251256281472756e-01
  +4.14070351758794030772e-01
  +4.18090452261306588788e-01
  +4.22110552763819146804e-01
  +4.26130653266331704820e-01
  +4.30150753768844262837e-01
  +4.34170854271356820853e-01
  +4.38190954773869378869e-01
  +4.42211055276381936885e-01
  +4.46231155778894494901e-01
  +4.50251256281407052917e-01
  +4.54271356783919666444e-01
  +4.58291457286432224461e-01
  +4.62311557788944782477e-01
  +4.66331658291457340493e-01
  +4.70351758793969898509e-01
  +4.74371859296482456525e-01
  +4.78391959798995014541e-01
  +4.82412060301507572557e-01
  +4.86432160804020130573e-01
  +4.90452261306532688589e-01
  +4.94472361809045302117e-01
  +4.98492462311557860133e-01
  +5.02512562814070418149e-01
  +5.06532663316582976165e-01
  +5.10552763819095534181e-01
  +5.14572864321608092197e-01
  +5.18592964824120650214e-01
  +5.22613065326633208230e-01
  +5.26633165829145766246e-01
  +5.30653266331658324262e-01
  +5.34673366834170882278e-01
  +5.38693467336683440294e-01
  +5.42713567839195998310e-01
  +5.46733668341708556326e-01
  +5.50753768844221114342e-01
  +5.54773869346733672359e-01
  +5.58793969849246341397e-01
  +5.62814070351758899413e-01
  +5.66834170854271457429e-01
  +5.70854271356784015445e-01
  +5.74874371859296573462e-01
  +5.78894472361809131478e-01
  +5.82914572864321689494e-01
  +5.86934673366834247510e-01
  +5.90954773869346805526e-01
  +5.94974874371859363542e-01
  +5.98994974874371921558e-01
  +6.03015075376884479574e-01
  +6.07035175879397037590e-01
  +6.11055276381909595607e-01
  +6.15075376884422153623e-01
  +6.19095477386934711639e-01
  +6.23115577889447269655e-01
  +6.27135678391959827671e-01
  +6.31155778894472385687e-01
  +6.35175879396984943703e-01
  +6.39195979899497501719e-01
  +6.43216080402010170758e-01
  +6.47236180904522728774e-01
  +6.51256281407035286790e-01
  +6.55276381909547844806e-01
  +6.59296482412060402822e-01
  +6.63316582914572960838e-01
  +6.67336683417085518855e-01
  +6.71356783919598076871e-01
  +6.75376884422110634887e-01
  +6.79396984924623192903e-01
  +6.83417085427135750919e-01
  +6.87437185929648308935e-01
  +6.91457286432160866951e-01
  +6.95477386934673424967e-01
  +6.99497487437185982984e-01
  +7.03517587939698541000e-01
  +7.07537688442211099016e-01
  +7.11557788944723657032e-01
  +7.15577889447236215048e-01
  +7.19597989949748773064e-01
  +7.23618090452261331080e-01
  +7.27638190954773889096e-01
  +7.31658291457286558135e-01
  +7.35678391959799116151e-01
  +7.39698492462311674167e-01
  +7.43718592964824232183e-01
  +7.47738693467336790199e-01
  +7.51758793969849348215e-01
  +7.55778894472361906232e-01
  +7.59798994974874464248e-01
  +7.63819095477387022264e-01
  +7.67839195979899580280e-01
  +7.71859296482412138296e-01
  +7.75879396984924696312e-01
  +7.79899497487437254328e-01
  +7.83919597989949812344e-01
  +7.87939698492462370361e-01
  +7.91959798994974928377e-01
  +7.95979899497487486393e-01
  +8.00000000000000044409e-01
</indep>
<dep V1.It time>
  -8.30173221764208130180e-02
  -8.30173221764193003391e-02
  -8.30173221764200636175e-02
  -8.30173221764212015961e-02
  -8.30173221764209101625e-02
  -8.30173221764205493400e-02
  -8.30173221764207575069e-02
  -8.30173221764211322071e-02
  -8.30173221764197721839e-02
  -8.30173221764201330064e-02
  -8.30173221764199664729e-02
  -8.30173221764205215845e-02
  -8.30173221764201052508e-02
  -8.30173221764199248396e-02
  -8.30173221764207158735e-02
  -8.30173221764213681295e-02
  -8.30173221764202301509e-02
  -8.30173221764210766960e-02
  -8.30173221764207297513e-02
  -8.30173221764201746398e-02
  -8.30173221764204521955e-02
  -8.30173221764208962847e-02
  -8.30173221764198554506e-02
  -8.30173221764202162731e-02
  -8.30173221764198693284e-02
  -8.30173221764202440287e-02
  -8.30173221764202856621e-02
  -8.30173221764204105622e-02
  -8.30173221764201607620e-02
  -8.30173221764211183293e-02
  -8.30173221764206326068e-02
  -8.30173221764210211848e-02
  -8.30173221764208407736e-02
  -8.30173221764206603623e-02
  -8.30173221764203828066e-02
  -8.30173221764199525952e-02
  -8.30173221764207575069e-02
  -8.30173221764202995399e-02
  -8.30173221764208130180e-02
  -8.30173221764202440287e-02
  -8.30173221764210489404e-02
  -8.30173221764198970840e-02
  -8.30173221764202440287e-02
  -8.30173221764205215845e-02
  -8.30173221764195223837e-02
  -8.30173221764200358619e-02
  -8.30173221764205493400e-02
  -8.30173221764204799511e-02
  -8.30173221764205632178e-02
  -8.30173221764206187290e-02
  -7.91696787109590488507e-02
  -7.91696787109591876286e-02
  -7.91696787109590349729e-02
  -7.91696787109594651843e-02
  -7.91696787109593819176e-02
  -7.91696787109591182396e-02
  -7.91696787109592292619e-02
  -7.91696787109594929399e-02
  -7.91696787109593957954e-02
  -7.91696787109595484511e-02
  -7.91696787109593680398e-02
  -7.91696787109594651843e-02
  -7.91696787109592292619e-02
  -7.91696787109592570175e-02
  -7.91696787109591737508e-02
  -7.91696787109590904841e-02
  -7.91696787109588268061e-02
  -7.91696787109587851727e-02
  -7.91696787109592431397e-02
  -7.91696787109594651843e-02
  -7.91696787109592431397e-02
  -7.91696787109595068177e-02
  -7.91696787109594096732e-02
  -7.91696787109594096732e-02
  -7.91696787109591182396e-02
  -7.91696787109594096732e-02
  -7.91696787109594790621e-02
  -7.91696787109593819176e-02
  -7.91696787109594929399e-02
  -7.91696787109587574172e-02
  -7.91696787109590210951e-02
  -7.91696787109587990505e-02
  -7.91696787109592153842e-02
  -7.91696787109594513066e-02
  -7.91696787109592570175e-02
  -7.91696787109594929399e-02
  -7.91696787109591876286e-02
  -7.91696787109595762066e-02
  -7.91696787109592708953e-02
  -7.91696787109591182396e-02
  -7.91696787109598537624e-02
  -7.91696787109591182396e-02
  -7.91696787109592292619e-02
  -7.91696787109592570175e-02
  -7.91696787109595762066e-02
  -7.91696787109594790621e-02
  -7.91696787109594096732e-02
  -7.91696787109591043619e-02
  -7.91696787109594929399e-02
  -7.91696787109592570175e-02
  -6.87244835567953374588e+25
  -6.87244835567971241652e+25
  -6.87244835567966431289e+25
  -6.87244835567935679323e+25
  -6.87244835567943066667e+25
  -6.87244835567952687394e+25
  -6.87244835567953374588e+25
  -6.87244835567971241652e+25
  -6.87244835567971241652e+25
  -6.87244835567973560935e+25
  -6.87244835567948048829e+25
  -6.87244835567936538317e+25
  -6.87244835567976395613e+25
  -6.87244835567943152566e+25
  -6.87244835567915750675e+25
  -6.87244835567948048829e+25
  -6.87244835567971241652e+25
  -6.87244835567952687394e+25
  -6.87244835567946330842e+25
  -6.87244835567948048829e+25
  -6.87244835567932758745e+25
  -6.87244835567971241652e+25
  -6.87244835567934562632e+25
  -6.87244835567958270851e+25
  -6.87244835567946330842e+25
  -6.87244835567951828400e+25
  -6.87244835567961277328e+25
  -6.87244835567951828400e+25
  -6.87244835567966431289e+25
  -6.87244835567973560935e+25
  -6.87244835567934562632e+25
  -6.87244835567971241652e+25
  -6.87244835567952687394e+25
  -6.87244835567946330842e+25
  -6.87244835567948048829e+25
  -6.87244835567932758745e+25
  -6.87244835567971241652e+25
  -6.87244835567934562632e+25
  -6.87244835567958270851e+25
  -6.87244835567946330842e+25
  -6.87244835567951828400e+25
  -6.87244835567961277328e+25
  -6.87244835567951828400e+25
  -6.87244835567966431289e+25
  -6.87244835567973560935e+25
  -6.87244835567934562632e+25
  -6.87244835567971241652e+25
  -6.87244835567952687394e+25
  -6.87244835567946330842e+25
  -6.87244835567948048829e+25
  -6.87244835567915750675e+25
  -6.87244835567965486396e+25
  -6.87244835567934562632e+25
  -6.87244835567951656602e+25
  -6.87244835567944784654e+25
  -6.87244835567958099052e+25
  -6.87244835567973560935e+25
  -6.87244835567932758745e+25
  -6.87244835567934390833e+25
  -6.87244835567956724663e+25
  -6.87244835567932758745e+25
  -6.87244835567952687394e+25
  -6.87244835567966431289e+25
  -6.87244835567934390833e+25
  -6.87244835567934562632e+25
  -6.87244835567973560935e+25
  -6.87244835567966431289e+25
  -6.87244835567934390833e+25
  -6.87244835567916781467e+25
  -6.87244835567944784654e+25
  -6.87244835567952515595e+25
  -6.87244835567952687394e+25
  -6.87244835567934562632e+25
  -6.87244835567951828400e+25
  -6.87244835567976395613e+25
  -6.87244835567919186649e+25
  -6.87244835567934390833e+25
  -6.87244835567973560935e+25
  -6.87244835567937483209e+25
  -6.87244835567973560935e+25
  -6.87244835567976395613e+25
  -6.87244835567971241652e+25
  -6.87244835567966431289e+25
  -6.87244835567966431289e+25
  -6.87244835567937483209e+25
  -6.87244835567932758745e+25
  -6.87244835567966087692e+25
  -6.87244835567948048829e+25
  -6.87244835567979058493e+25
  -6.87244835567936280619e+25
  -6.87244835567976395613e+25
  -6.87244835567927690684e+25
  -6.87244835567952687394e+25
  -6.87244835567932758745e+25
  -6.87244835567952000199e+25
  -6.87244835567973560935e+25
  -6.87244835567961277328e+25
  -6.87244835567971241652e+25
  -6.87244835567956123368e+25
  -6.87244833789778072992e+25
</dep>
<dep V4.It time>
  -0.00000000000000000000e+00
  -0.00000000000000000000e+00
  -0.00000000000000000000e+00
  -0.00000000000000000000e+00
  -0.00000000000000000000e+00
  -0.00000000000000000000e+00
  -0.00000000000000000000e+00
  -0.00000000000000000000e+00
  -0.00000000000000000000e+00
  -0.00000000000000000000e+00
  -0.00000000000000000000e+00
  -0.00000000000000000000e+00
  -0.00000000000000000000e+00
  -0.00000000000000000000e+00
  -0.00000000000000000000e+00
  -0.00000000000000000000e+00
  -0.00000000000000000000e+00
  -0.00000000000000000000e+00
  -0.00000000000000000000e+00
  -0.00000000000000000000e+00
  -0.00000000000000000000e+00
  -0.00000000000000000000e+00
  -0.00000000000000000000e+00
  -0.00000000000000000000e+00
  -0.00000000000000000000e+00
  -0.00000000000000000000e+00
  -0.00000000000000000000e+00
  -0.00000000000000000000e+00
  -0.00000000000000000000e+00
  -0.00000000000000000000e+00
  -0.00000000000000000000e+00
  -0.00000000000000000000e+00
  -0.00000000000000000000e+00
  -0.00000000000000000000e+00
  -0.00000000000000000000e+00
  -0.00000000000000000000e+00
  -0.00000000000000000000e+00
  -0.00000000000000000000e+00
  -0.00000000000000000000e+00
  -0.00000000000000000000e+00
  -0.00000000000000000000e+00
  -0.00000000000000000000e+00
  -0.00000000000000000000e+00
  -0.00000000000000000000e+00
  -0.00000000000000000000e+00
  -0.00000000000000000000e+00
  -0.00000000000000000000e+00
  -0.00000000000000000000e+00
  -0.00000000000000000000e+00
  -0.00000000000000000000e+00
  -0.00000000000000000000e+00
  -0.00000000000000000000e+00
  -0.00000000000000000000e+00
  -0.00000000000000000000e+00
  -0.00000000000000000000e+00
  -0.00000000000000000000e+00
  -0.00000000000000000000e+00
  -0.00000000000000000000e+00
  -0.00000000000000000000e+00
  -0.00000000000000000000e+00
  -0.00000000000000000000e+00
  -0.00000000000000000000e+00
  -0.00000000000000000000e+00
  -0.00000000000000000000e+00
  -0.00000000000000000000e+00
  -0.00000000000000000000e+00
  -0.00000000000000000000e+00
  -0.00000000000000000000e+00
  -0.00000000000000000000e+00
  -0.00000000000000000000e+00
  -0.00000000000000000000e+00
  -0.00000000000000000000e+00
  -0.00000000000000000000e+00
  -0.00000000000000000000e+00
  -0.00000000000000000000e+00
  -0.00000000000000000000e+00
  -0.00000000000000000000e+00
  -0.00000000000000000000e+00
  -0.00000000000000000000e+00
  -0.00000000000000000000e+00
  -0.00000000000000000000e+00
  -0.00000000000000000000e+00
  -0.00000000000000000000e+00
  -0.00000000000000000000e+00
  -0.00000000000000000000e+00
  -0.00000000000000000000e+00
  -0.00000000000000000000e+00
  -0.00000000000000000000e+00
  -0.00000000000000000000e+00
  -0.00000000000000000000e+00
  -0.00000000000000000000e+00
  -0.00000000000000000000e+00
  -0.00000000000000000000e+00
  -0.00000000000000000000e+00
  -0.00000000000000000000e+00
  -0.00000000000000000000e+00
  -0.00000000000000000000e+00
  -0.00000000000000000000e+00
  -0.00000000000000000000e+00
  -0.00000000000000000000e+00
  -0.00000000000000000000e+00
  -0.00000000000000000000e+00
  -0.00000000000000000000e+00
  -0.00000000000000000000e+00
  -0.00000000000000000000e+00
  -0.00000000000000000000e+00
  -0.00000000000000000000e+00
  -0.00000000000000000000e+00
  -0.00000000000000000000e+00
  -0.00000000000000000000e+00
  -0.00000000000000000000e+00
  -0.00000000000000000000e+00
  -0.00000000000000000000e+00
  -0.00000000000000000000e+00
  -0.00000000000000000000e+00
  -0.00000000000000000000e+00
  -0.00000000000000000000e+00
  -0.00000000000000000000e+00
  -0.00000000000000000000e+00
  -0.00000000000000000000e+00
  -0.00000000000000000000e+00
  -0.00000000000000000000e+00
  -0.00000000000000000000e+00
  -0.00000000000000000000e+00
  -0.00000000000000000000e+00
  -0.00000000000000000000e+00
  -0.00000000000000000000e+00
  -0.00000000000000000000e+00
  -0.00000000000000000000e+00
  -0.00000000000000000000e+00
  -0.00000000000000000000e+00
  -0.00000000000000000000e+00
  -0.00000000000000000000e+00
  -0.00000000000000000000e+00
  -0.00000000000000000000e+00
  -0.00000000000000000000e+00
  -0.00000000000000000000e+00
  -0.00000000000000000000e+00
  -0.00000000000000000000e+00
  -0.00000000000000000000e+00
  -0.00000000000000000000e+00
  -0.00000000000000000000e+00
  -0.00000000000000000000e+00
  -0.00000000000000000000e+00
  -0.00000000000000000000e+00
  -0.00000000000000000000e+00
  -0.00000000000000000000e+00
  -0.00000000000000000000e+00
  -0.00000000000000000000e+00
  -0.00000000000000000000e+00
  -0.00000000000000000000e+00
  -0.00000000000000000000e+00
  -0.00000000000000000000e+00
  -0.00000000000000000000e+00
  -0.00000000000000000000e+00
  -0.00000000000000000000e+00
  -0.00000000000000000000e+00
  -0.00000000000000000000e+00
  -0.00000000000000000000e+00
  -0.00000000000000000000e+00
  -0.00000000000000000000e+00
  -0.00000000000000000000e+00
  -0.00000000000000000000e+00
  -0.00000000000000000000e+00
  -0.00000000000000000000e+00
  -0.00000000000000000000e+00
  -0.00000000000000000000e+00
  -0.00000000000000000000e+00
  -0.00000000000000000000e+00
  -0.00000000000000000000e+00
  -0.00000000000000000000e+00
  -0.00000000000000000000e+00
  -0.00000000000000000000e+00
  -0.00000000000000000000e+00
  -0.00000000000000000000e+00
  -0.00000000000000000000e+00
  -0.00000000000000000000e+00
  -0.00000000000000000000e+00
  -0.00000000000000000000e+00
  -0.00000000000000000000e+00
  -0.00000000000000000000e+00
  -0.00000000000000000000e+00
  -0.00000000000000000000e+00
  -0.00000000000000000000e+00
  -0.00000000000000000000e+00
  -0.00000000000000000000e+00
  -0.00000000000000000000e+00
  -0.00000000000000000000e+00
  -0.00000000000000000000e+00
  -0.00000000000000000000e+00
  -0.00000000000000000000e+00
  -0.00000000000000000000e+00
  -0.00000000000000000000e+00
  -0.00000000000000000000e+00
  -0.00000000000000000000e+00
  -0.00000000000000000000e+00
  -0.00000000000000000000e+00
  -0.00000000000000000000e+00
  -0.00000000000000000000e+00
  -0.00000000000000000000e+00
</dep>
<dep V2.It time>
  +2.62379085045525697537e-03
  +2.62379085045525177119e-03
  +2.62379085045522575034e-03
  +2.62379085045525697537e-03
  +2.62379085045526911843e-03
  +2.62379085045526868475e-03
  +2.62379085045525697537e-03
  +2.62379085045524786807e-03
  +2.62379085045526217954e-03
  +2.62379085045527258788e-03
  +2.62379085045523268924e-03
  +2.62379085045527258788e-03
  +2.62379085045525177119e-03
  +2.62379085045523399028e-03
  +2.62379085045528299622e-03
  +2.62379085045524613334e-03
  +2.62379085045525220488e-03
  +2.62379085045526564898e-03
  +2.62379085045524786807e-03
  +2.62379085045526521530e-03
  +2.62379085045525827641e-03
  +2.62379085045526868475e-03
  +2.62379085045523962813e-03
  +2.62379085045527258788e-03
  +2.62379085045528299622e-03
  +2.62379085045526044481e-03
  +2.62379085045526174585e-03
  +2.62379085045523268924e-03
  +2.62379085045527258788e-03
  +2.62379085045527258788e-03
  +2.62379085045522271458e-03
  +2.62379085045525697537e-03
  +2.62379085045525133751e-03
  +2.62379085045525697537e-03
  +2.62379085045525871009e-03
  +2.62379085045526564898e-03
  +2.62379085045525697537e-03
  +2.62379085045526911843e-03
  +2.62379085045526868475e-03
  +2.62379085045527258788e-03
  +2.62379085045524786807e-03
  +2.62379085045525003647e-03
  +2.62379085045522965347e-03
  +2.62379085045526868475e-03
  +2.62379085045527605732e-03
  +2.62379085045525697537e-03
  +2.62379085045524309758e-03
  +2.62379085045526564898e-03
  +2.62379085045525697537e-03
  +2.62379085045525177119e-03
  +4.17140979236331043561e-03
  +4.17140979236329222102e-03
  +4.17140979236333211966e-03
  +4.17140979236329569046e-03
  +4.17140979236330783353e-03
  +4.17140979236329048629e-03
  +4.17140979236331043561e-03
  +4.17140979236328788421e-03
  +4.17140979236327574114e-03
  +4.17140979236330089464e-03
  +4.17140979236327487378e-03
  +4.17140979236327834323e-03
