<Qucs Dataset 26.1.1>
<indep time 296>
0.000000000000e+00
1.000000000000e-08
2.000000000000e-08
4.000000000000e-08
8.000000000000e-08
1.600000000000e-07
3.200000000000e-07
6.400000000000e-07
1.000000000000e-06
1.064000000000e-06
1.192000000000e-06
1.448000000000e-06
1.960000000000e-06
2.984000000000e-06
5.032000000000e-06
9.128000000000e-06
1.732000000000e-05
3.370400000000e-05
6.647200000000e-05
1.320080000000e-04
2.630800000000e-04
5.252240000000e-04
1.049512000000e-03
2.098088000000e-03
4.195240000000e-03
6.707800000000e-03
9.220360000000e-03
1.173292000000e-02
1.424548000000e-02
1.675804000000e-02
1.927060000000e-02
2.178316000000e-02
2.429572000000e-02
2.680828000000e-02
2.932084000000e-02
3.183340000000e-02
3.434596000000e-02
3.685852000000e-02
3.937108000000e-02
4.188364000000e-02
4.439620000000e-02
4.690876000000e-02
4.942132000000e-02
5.193388000000e-02
5.444644000000e-02
5.695900000000e-02
5.947156000000e-02
6.198412000000e-02
6.449668000000e-02
6.700924000000e-02
6.952180000000e-02
7.203436000000e-02
7.454692000000e-02
7.705948000000e-02
7.957204000000e-02
8.208460000000e-02
8.459716000000e-02
8.710972000000e-02
8.962228000000e-02
9.213484000000e-02
9.464740000000e-02
9.715996000000e-02
9.967252000000e-02
1.000000000000e-01
1.000001000000e-01
1.000003000000e-01
1.000007000000e-01
1.000010000000e-01
1.000010800000e-01
1.000012400000e-01
1.000015600000e-01
1.000022000000e-01
1.000034800000e-01
1.000060400000e-01
1.000111600000e-01
1.000214000000e-01
1.000418800000e-01
1.000828400000e-01
1.001647600000e-01
1.003286000000e-01
1.006562800000e-01
1.013116400000e-01
1.026223600000e-01
1.051349200000e-01
1.076474800000e-01
1.101600400000e-01
1.126726000000e-01
1.151851600000e-01
1.176977200000e-01
1.202102800000e-01
1.227228400000e-01
1.252354000000e-01
1.277479600000e-01
1.302605200000e-01
1.327730800000e-01
1.352856400000e-01
1.377982000000e-01
1.403107600000e-01
1.428233200000e-01
1.453358800000e-01
1.478484400000e-01
1.503610000000e-01
1.528735600000e-01
1.553861200000e-01
1.578986800000e-01
1.604112400000e-01
1.629238000000e-01
1.654363600000e-01
1.679489200000e-01
1.704614800000e-01
1.729740400000e-01
1.754866000000e-01
1.779991600000e-01
1.805117200000e-01
1.830242800000e-01
1.855368400000e-01
1.880494000000e-01
1.905619600000e-01
1.930745200000e-01
1.955870800000e-01
1.980996400000e-01
2.000010000000e-01
2.000011000000e-01
2.000013000000e-01
2.000017000000e-01
2.000020000000e-01
2.000020800000e-01
2.000022400000e-01
2.000025600000e-01
2.000032000000e-01
2.000044800000e-01
2.000070400000e-01
2.000121600000e-01
2.000224000000e-01
2.000428800000e-01
2.000838400000e-01
2.001657600000e-01
2.003296000000e-01
2.006572800000e-01
2.013126400000e-01
2.026233600000e-01
2.051359200000e-01
2.076484800000e-01
2.101610400000e-01
2.126736000000e-01
2.151861600000e-01
2.176987200000e-01
2.202112800000e-01
2.227238400000e-01
2.252364000000e-01
2.277489600000e-01
2.302615200000e-01
2.327740800000e-01
2.352866400000e-01
2.377992000000e-01
2.403117600000e-01
2.428243200000e-01
2.453368800000e-01
2.478494400000e-01
2.503620000000e-01
2.528745600000e-01
2.553871200000e-01
2.578996800000e-01
2.604122400000e-01
2.629248000000e-01
2.654373600000e-01
2.679499200000e-01
2.704624800000e-01
2.729750400000e-01
2.754876000000e-01
2.780001600000e-01
2.805127200000e-01
2.830252800000e-01
2.855378400000e-01
2.880504000000e-01
2.905629600000e-01
2.930755200000e-01
2.955880800000e-01
2.981006400000e-01
3.000010000000e-01
3.000011000000e-01
3.000013000000e-01
3.000017000000e-01
3.000020000000e-01
3.000020800000e-01
3.000022400000e-01
3.000025600000e-01
3.000032000000e-01
3.000044800000e-01
3.000070400000e-01
3.000121600000e-01
3.000224000000e-01
3.000428800000e-01
3.000838400000e-01
3.001657600000e-01
3.003296000000e-01
3.006572800000e-01
3.013126400000e-01
3.026233599999e-01
3.051359199999e-01
3.076484799999e-01
3.101610399999e-01
3.126735999999e-01
3.151861599999e-01
3.176987199999e-01
3.202112799999e-01
3.227238399999e-01
3.252363999999e-01
3.277489599999e-01
3.302615199999e-01
3.327740799999e-01
3.352866399999e-01
3.377991999999e-01
3.403117599999e-01
3.428243199999e-01
3.453368799999e-01
3.478494399999e-01
3.503619999999e-01
3.528745599999e-01
3.553871199999e-01
3.578996799999e-01
3.604122399999e-01
3.629247999999e-01
3.654373599999e-01
3.679499199999e-01
3.704624799999e-01
3.729750399999e-01
3.754875999999e-01
3.780001599999e-01
3.805127199999e-01
3.830252799999e-01
3.855378399999e-01
3.880503999999e-01
3.905629599999e-01
3.930755199999e-01
3.955880799999e-01
3.981006399999e-01
4.000020000000e-01
4.000021000000e-01
4.000023000000e-01
4.000027000000e-01
4.000030000000e-01
4.000030800000e-01
4.000032400000e-01
4.000035600000e-01
4.000042000000e-01
4.000054800000e-01
4.000080400000e-01
4.000131600000e-01
4.000234000000e-01
4.000438800000e-01
4.000848400000e-01
4.001667600000e-01
4.003306000000e-01
4.006582800000e-01
4.013136400000e-01
4.026243599999e-01
4.051369199999e-01
4.076494799999e-01
4.101620399999e-01
4.126745999999e-01
4.151871599999e-01
4.176997199999e-01
4.202122799999e-01
4.227248399999e-01
4.252373999999e-01
4.277499599999e-01
4.302625199999e-01
4.327750799999e-01
4.352876399999e-01
4.378001999999e-01
4.403127599999e-01
4.428253199999e-01
4.453378799999e-01
4.478504399999e-01
4.503629999999e-01
4.528755599999e-01
4.553881199999e-01
4.579006799999e-01
4.604132399999e-01
4.629257999999e-01
4.654383599999e-01
4.679509199999e-01
4.704634799999e-01
4.729760399999e-01
4.754885999999e-01
4.780011599999e-01
4.805137199999e-01
4.830262799999e-01
4.855388399999e-01
4.880513999999e-01
4.905639599999e-01
4.930765199999e-01
4.955890799999e-01
4.981016399999e-01
5.000000000000e-01
</indep>
<dep tran.v(a) time>
0.000000000000e+00
5.000000000000e-02
1.000000000000e-01
2.000000000000e-01
4.000000000000e-01
8.000000000000e-01
1.600000000000e+00
3.200000000000e+00
5.000000000000e+00
5.000000000000e+00
5.000000000000e+00
5.000000000000e+00
5.000000000000e+00
5.000000000000e+00
5.000000000000e+00
5.000000000000e+00
5.000000000000e+00
5.000000000000e+00
5.000000000000e+00
5.000000000000e+00
5.000000000000e+00
5.000000000000e+00
5.000000000000e+00
5.000000000000e+00
5.000000000000e+00
5.000000000000e+00
5.000000000000e+00
5.000000000000e+00
5.000000000000e+00
5.000000000000e+00
5.000000000000e+00
5.000000000000e+00
5.000000000000e+00
5.000000000000e+00
5.000000000000e+00
5.000000000000e+00
5.000000000000e+00
5.000000000000e+00
5.000000000000e+00
5.000000000000e+00
5.000000000000e+00
5.000000000000e+00
5.000000000000e+00
5.000000000000e+00
5.000000000000e+00
5.000000000000e+00
5.000000000000e+00
5.000000000000e+00
5.000000000000e+00
5.000000000000e+00
5.000000000000e+00
5.000000000000e+00
5.000000000000e+00
5.000000000000e+00
5.000000000000e+00
5.000000000000e+00
5.000000000000e+00
5.000000000000e+00
5.000000000000e+00
5.000000000000e+00
5.000000000000e+00
5.000000000000e+00
5.000000000000e+00
5.000000000000e+00
5.000000000000e+00
5.000000000000e+00
5.000000000000e+00
5.000000000000e+00
5.000000000000e+00
5.000000000000e+00
5.000000000000e+00
5.000000000000e+00
5.000000000000e+00
5.000000000000e+00
5.000000000000e+00
5.000000000000e+00
5.000000000000e+00
5.000000000000e+00
5.000000000000e+00
5.000000000000e+00
5.000000000000e+00
5.000000000000e+00
5.000000000000e+00
5.000000000000e+00
5.000000000000e+00
5.000000000000e+00
5.000000000000e+00
5.000000000000e+00
5.000000000000e+00
5.000000000000e+00
5.000000000000e+00
5.000000000000e+00
5.000000000000e+00
5.000000000000e+00
5.000000000000e+00
5.000000000000e+00
5.000000000000e+00
5.000000000000e+00
5.000000000000e+00
5.000000000000e+00
5.000000000000e+00
5.000000000000e+00
5.000000000000e+00
5.000000000000e+00
5.000000000000e+00
5.000000000000e+00
5.000000000000e+00
5.000000000000e+00
5.000000000000e+00
5.000000000000e+00
5.000000000000e+00
5.000000000000e+00
5.000000000000e+00
5.000000000000e+00
5.000000000000e+00
5.000000000000e+00
5.000000000000e+00
5.000000000000e+00
5.000000000000e+00
5.000000000000e+00
5.000000000000e+00
5.000000000000e+00
4.499999999986e+00
3.499999999957e+00
1.499999999899e+00
0.000000000000e+00
0.000000000000e+00
0.000000000000e+00
0.000000000000e+00
0.000000000000e+00
0.000000000000e+00
0.000000000000e+00
0.000000000000e+00
0.000000000000e+00
0.000000000000e+00
0.000000000000e+00
0.000000000000e+00
0.000000000000e+00
0.000000000000e+00
0.000000000000e+00
0.000000000000e+00
0.000000000000e+00
0.000000000000e+00
0.000000000000e+00
0.000000000000e+00
0.000000000000e+00
0.000000000000e+00
0.000000000000e+00
0.000000000000e+00
0.000000000000e+00
0.000000000000e+00
0.000000000000e+00
0.000000000000e+00
0.000000000000e+00
0.000000000000e+00
0.000000000000e+00
0.000000000000e+00
0.000000000000e+00
0.000000000000e+00
0.000000000000e+00
0.000000000000e+00
0.000000000000e+00
0.000000000000e+00
0.000000000000e+00
0.000000000000e+00
0.000000000000e+00
0.000000000000e+00
0.000000000000e+00
0.000000000000e+00
0.000000000000e+00
0.000000000000e+00
0.000000000000e+00
0.000000000000e+00
0.000000000000e+00
0.000000000000e+00
0.000000000000e+00
0.000000000000e+00
0.000000000000e+00
0.000000000000e+00
0.000000000000e+00
0.000000000000e+00
0.000000000000e+00
0.000000000000e+00
0.000000000000e+00
0.000000000000e+00
0.000000000000e+00
0.000000000000e+00
0.000000000000e+00
0.000000000000e+00
0.000000000000e+00
0.000000000000e+00
0.000000000000e+00
0.000000000000e+00
0.000000000000e+00
0.000000000000e+00
0.000000000000e+00
0.000000000000e+00
0.000000000000e+00
0.000000000000e+00
0.000000000000e+00
0.000000000000e+00
0.000000000000e+00
0.000000000000e+00
0.000000000000e+00
0.000000000000e+00
0.000000000000e+00
0.000000000000e+00
0.000000000000e+00
0.000000000000e+00
0.000000000000e+00
0.000000000000e+00
0.000000000000e+00
0.000000000000e+00
0.000000000000e+00
0.000000000000e+00
0.000000000000e+00
0.000000000000e+00
0.000000000000e+00
0.000000000000e+00
0.000000000000e+00
0.000000000000e+00
0.000000000000e+00
0.000000000000e+00
0.000000000000e+00
0.000000000000e+00
0.000000000000e+00
0.000000000000e+00
0.000000000000e+00
0.000000000000e+00
0.000000000000e+00
0.000000000000e+00
0.000000000000e+00
0.000000000000e+00
0.000000000000e+00
0.000000000000e+00
0.000000000000e+00
0.000000000000e+00
0.000000000000e+00
5.000000000144e-01
1.500000000043e+00
3.500000000101e+00
4.999999999866e+00
5.000000000000e+00
5.000000000000e+00
5.000000000000e+00
5.000000000000e+00
5.000000000000e+00
5.000000000000e+00
5.000000000000e+00
5.000000000000e+00
5.000000000000e+00
5.000000000000e+00
5.000000000000e+00
5.000000000000e+00
5.000000000000e+00
5.000000000000e+00
5.000000000000e+00
5.000000000000e+00
5.000000000000e+00
5.000000000000e+00
5.000000000000e+00
5.000000000000e+00
5.000000000000e+00
5.000000000000e+00
5.000000000000e+00
5.000000000000e+00
5.000000000000e+00
5.000000000000e+00
5.000000000000e+00
5.000000000000e+00
5.000000000000e+00
5.000000000000e+00
5.000000000000e+00
5.000000000000e+00
5.000000000000e+00
5.000000000000e+00
5.000000000000e+00
5.000000000000e+00
5.000000000000e+00
5.000000000000e+00
5.000000000000e+00
5.000000000000e+00
5.000000000000e+00
5.000000000000e+00
5.000000000000e+00
5.000000000000e+00
5.000000000000e+00
5.000000000000e+00
5.000000000000e+00
5.000000000000e+00
5.000000000000e+00
5.000000000000e+00
5.000000000000e+00
5.000000000000e+00
5.000000000000e+00
5.000000000000e+00
</dep>
<dep tran.v(b) time>
0.000000000000e+00
0.000000000000e+00
0.000000000000e+00
0.000000000000e+00
0.000000000000e+00
0.000000000000e+00
0.000000000000e+00
0.000000000000e+00
0.000000000000e+00
0.000000000000e+00
0.000000000000e+00
0.000000000000e+00
0.000000000000e+00
0.000000000000e+00
0.000000000000e+00
0.000000000000e+00
0.000000000000e+00
0.000000000000e+00
0.000000000000e+00
0.000000000000e+00
0.000000000000e+00
0.000000000000e+00
0.000000000000e+00
0.000000000000e+00
0.000000000000e+00
0.000000000000e+00
0.000000000000e+00
0.000000000000e+00
0.000000000000e+00
0.000000000000e+00
0.000000000000e+00
0.000000000000e+00
0.000000000000e+00
0.000000000000e+00
0.000000000000e+00
0.000000000000e+00
0.000000000000e+00
0.000000000000e+00
0.000000000000e+00
0.000000000000e+00
0.000000000000e+00
0.000000000000e+00
0.000000000000e+00
0.000000000000e+00
0.000000000000e+00
0.000000000000e+00
0.000000000000e+00
0.000000000000e+00
0.000000000000e+00
0.000000000000e+00
0.000000000000e+00
0.000000000000e+00
0.000000000000e+00
0.000000000000e+00
0.000000000000e+00
0.000000000000e+00
0.000000000000e+00
0.000000000000e+00
0.000000000000e+00
0.000000000000e+00
0.000000000000e+00
0.000000000000e+00
0.000000000000e+00
0.000000000000e+00
5.000000000144e-01
1.500000000043e+00
3.500000000031e+00
5.000000000000e+00
5.000000000000e+00
5.000000000000e+00
5.000000000000e+00
5.000000000000e+00
5.000000000000e+00
5.000000000000e+00
5.000000000000e+00
5.000000000000e+00
5.000000000000e+00
5.000000000000e+00
5.000000000000e+00
5.000000000000e+00
5.000000000000e+00
5.000000000000e+00
5.000000000000e+00
5.000000000000e+00
5.000000000000e+00
5.000000000000e+00
5.000000000000e+00
5.000000000000e+00
5.000000000000e+00
5.000000000000e+00
5.000000000000e+00
5.000000000000e+00
5.000000000000e+00
5.000000000000e+00
5.000000000000e+00
5.000000000000e+00
5.000000000000e+00
5.000000000000e+00
5.000000000000e+00
5.000000000000e+00
5.000000000000e+00
5.000000000000e+00
5.000000000000e+00
5.000000000000e+00
5.000000000000e+00
5.000000000000e+00
5.000000000000e+00
5.000000000000e+00
5.000000000000e+00
5.000000000000e+00
5.000000000000e+00
5.000000000000e+00
5.000000000000e+00
5.000000000000e+00
5.000000000000e+00
5.000000000000e+00
5.000000000000e+00
5.000000000000e+00
5.000000000000e+00
5.000000000000e+00
5.000000000000e+00
5.000000000000e+00
5.000000000000e+00
5.000000000000e+00
5.000000000000e+00
5.000000000000e+00
5.000000000000e+00
5.000000000000e+00
5.000000000000e+00
5.000000000000e+00
5.000000000000e+00
5.000000000000e+00
5.000000000000e+00
5.000000000000e+00
5.000000000000e+00
5.000000000000e+00
5.000000000000e+00
5.000000000000e+00
5.000000000000e+00
5.000000000000e+00
5.000000000000e+00
5.000000000000e+00
5.000000000000e+00
5.000000000000e+00
5.000000000000e+00
5.000000000000e+00
5.000000000000e+00
5.000000000000e+00
5.000000000000e+00
5.000000000000e+00
5.000000000000e+00
5.000000000000e+00
5.000000000000e+00
5.000000000000e+00
5.000000000000e+00
5.000000000000e+00
5.000000000000e+00
5.000000000000e+00
5.000000000000e+00
5.000000000000e+00
5.000000000000e+00
5.000000000000e+00
5.000000000000e+00
5.000000000000e+00
5.000000000000e+00
5.000000000000e+00
5.000000000000e+00
5.000000000000e+00
5.000000000000e+00
5.000000000000e+00
5.000000000000e+00
5.000000000000e+00
5.000000000000e+00
5.000000000000e+00
5.000000000000e+00
5.000000000000e+00
5.000000000000e+00
5.000000000000e+00
5.000000000000e+00
5.000000000000e+00
4.499999999986e+00
3.499999999957e+00
1.499999999899e+00
1.337774335752e-10
0.000000000000e+00
0.000000000000e+00
0.000000000000e+00
0.000000000000e+00
0.000000000000e+00
0.000000000000e+00
0.000000000000e+00
0.000000000000e+00
0.000000000000e+00
0.000000000000e+00
0.000000000000e+00
0.000000000000e+00
0.000000000000e+00
0.000000000000e+00
0.000000000000e+00
0.000000000000e+00
0.000000000000e+00
0.000000000000e+00
0.000000000000e+00
0.000000000000e+00
0.000000000000e+00
0.000000000000e+00
0.000000000000e+00
0.000000000000e+00
0.000000000000e+00
0.000000000000e+00
0.000000000000e+00
0.000000000000e+00
0.000000000000e+00
0.000000000000e+00
0.000000000000e+00
0.000000000000e+00
0.000000000000e+00
0.000000000000e+00
0.000000000000e+00
0.000000000000e+00
0.000000000000e+00
0.000000000000e+00
0.000000000000e+00
0.000000000000e+00
0.000000000000e+00
0.000000000000e+00
0.000000000000e+00
0.000000000000e+00
0.000000000000e+00
0.000000000000e+00
0.000000000000e+00
0.000000000000e+00
0.000000000000e+00
0.000000000000e+00
0.000000000000e+00
0.000000000000e+00
0.000000000000e+00
0.000000000000e+00
0.000000000000e+00
0.000000000000e+00
0.000000000000e+00
0.000000000000e+00
0.000000000000e+00
0.000000000000e+00
0.000000000000e+00
0.000000000000e+00
0.000000000000e+00
0.000000000000e+00
0.000000000000e+00
0.000000000000e+00
0.000000000000e+00
0.000000000000e+00
0.000000000000e+00
0.000000000000e+00
0.000000000000e+00
0.000000000000e+00
0.000000000000e+00
0.000000000000e+00
0.000000000000e+00
0.000000000000e+00
0.000000000000e+00
0.000000000000e+00
0.000000000000e+00
0.000000000000e+00
0.000000000000e+00
0.000000000000e+00
0.000000000000e+00
0.000000000000e+00
0.000000000000e+00
0.000000000000e+00
0.000000000000e+00
0.000000000000e+00
0.000000000000e+00
0.000000000000e+00
0.000000000000e+00
0.000000000000e+00
0.000000000000e+00
0.000000000000e+00
0.000000000000e+00
0.000000000000e+00
0.000000000000e+00
0.000000000000e+00
0.000000000000e+00
0.000000000000e+00
0.000000000000e+00
0.000000000000e+00
0.000000000000e+00
0.000000000000e+00
0.000000000000e+00
0.000000000000e+00
0.000000000000e+00
0.000000000000e+00
0.000000000000e+00
0.000000000000e+00
0.000000000000e+00
0.000000000000e+00
</dep>
<dep tran.v(vcc) time>
5.000000000000e+00
5.000000000000e+00
5.000000000000e+00
5.000000000000e+00
5.000000000000e+00
5.000000000000e+00
5.000000000000e+00
5.000000000000e+00
5.000000000000e+00
5.000000000000e+00
5.000000000000e+00
5.000000000000e+00
5.000000000000e+00
5.000000000000e+00
5.000000000000e+00
5.000000000000e+00
5.000000000000e+00
5.000000000000e+00
5.000000000000e+00
5.000000000000e+00
5.000000000000e+00
5.000000000000e+00
5.000000000000e+00
5.000000000000e+00
5.000000000000e+00
5.000000000000e+00
5.000000000000e+00
5.000000000000e+00
5.000000000000e+00
5.000000000000e+00
5.000000000000e+00
5.000000000000e+00
5.000000000000e+00
5.000000000000e+00
5.000000000000e+00
5.000000000000e+00
5.000000000000e+00
5.000000000000e+00
5.000000000000e+00
5.000000000000e+00
5.000000000000e+00
5.000000000000e+00
5.000000000000e+00
5.000000000000e+00
5.000000000000e+00
5.000000000000e+00
5.000000000000e+00
5.000000000000e+00
5.000000000000e+00
5.000000000000e+00
5.000000000000e+00
5.000000000000e+00
5.000000000000e+00
5.000000000000e+00
5.000000000000e+00
5.000000000000e+00
5.000000000000e+00
5.000000000000e+00
5.000000000000e+00
5.000000000000e+00
5.000000000000e+00
5.000000000000e+00
5.000000000000e+00
5.000000000000e+00
5.000000000000e+00
5.000000000000e+00
5.000000000000e+00
5.000000000000e+00
5.000000000000e+00
5.000000000000e+00
5.000000000000e+00
5.000000000000e+00
5.000000000000e+00
5.000000000000e+00
5.000000000000e+00
5.000000000000e+00
5.000000000000e+00
5.000000000000e+00
5.000000000000e+00
5.000000000000e+00
5.000000000000e+00
5.000000000000e+00
5.000000000000e+00
5.000000000000e+00
5.000000000000e+00
5.000000000000e+00
5.000000000000e+00
5.000000000000e+00
5.000000000000e+00
5.000000000000e+00
5.000000000000e+00
5.000000000000e+00
5.000000000000e+00
5.000000000000e+00
5.000000000000e+00
5.000000000000e+00
5.000000000000e+00
5.000000000000e+00
5.000000000000e+00
5.000000000000e+00
5.000000000000e+00
5.000000000000e+00
5.000000000000e+00
5.000000000000e+00
5.000000000000e+00
5.000000000000e+00
5.000000000000e+00
5.000000000000e+00
5.000000000000e+00
5.000000000000e+00
5.000000000000e+00
5.000000000000e+00
5.000000000000e+00
5.000000000000e+00
5.000000000000e+00
5.000000000000e+00
5.000000000000e+00
5.000000000000e+00
5.000000000000e+00
5.000000000000e+00
5.000000000000e+00
5.000000000000e+00
5.000000000000e+00
5.000000000000e+00
5.000000000000e+00
5.000000000000e+00
5.000000000000e+00
5.000000000000e+00
5.000000000000e+00
5.000000000000e+00
5.000000000000e+00
5.000000000000e+00
5.000000000000e+00
5.000000000000e+00
5.000000000000e+00
5.000000000000e+00
5.000000000000e+00
5.000000000000e+00
5.000000000000e+00
5.000000000000e+00
5.000000000000e+00
5.000000000000e+00
5.000000000000e+00
5.000000000000e+00
5.000000000000e+00
5.000000000000e+00
5.000000000000e+00
5.000000000000e+00
5.000000000000e+00
5.000000000000e+00
5.000000000000e+00
5.000000000000e+00
5.000000000000e+00
5.000000000000e+00
5.000000000000e+00
5.000000000000e+00
5.000000000000e+00
