<Qucs Dataset 26.1.1>
<indep time 316>
0.000000000000e+00
5.025130000000e-05
1.005026000000e-04
2.010052000000e-04
4.020104000000e-04
8.040208000000e-04
1.608041600000e-03
3.216083200000e-03
5.294118485340e-03
9.355670941945e-03
1.390374379865e-02
1.892887379865e-02
2.395400379865e-02
2.897913379865e-02
3.400426379865e-02
3.902939379865e-02
4.405452379865e-02
4.907965379865e-02
5.383061857165e-02
5.820737659678e-02
6.245434192132e-02
6.747947192132e-02
7.250460192132e-02
7.671212226716e-02
8.069791776518e-02
8.431823739640e-02
8.882878220007e-02
9.385391220007e-02
9.857285144913e-02
1.035979814491e-01
1.086231114491e-01
1.136482414491e-01
1.186733714491e-01
1.236985014491e-01
1.287236314491e-01
1.337487614491e-01
1.387738914491e-01
1.437990214491e-01
1.488241514491e-01
1.536425322510e-01
1.579602636829e-01
1.621855960055e-01
1.672107260055e-01
1.722358560055e-01
1.772609860055e-01
1.818653313972e-01
1.863932203669e-01
1.914183503669e-01
1.964434803669e-01
2.014686103669e-01
2.064937403669e-01
2.115188703669e-01
2.165440003669e-01
2.209516514041e-01
2.254244971814e-01
2.298633928066e-01
2.348885228066e-01
2.399136528066e-01
2.449387828066e-01
2.499639128066e-01
2.500000000000e-01
2.500001000000e-01
2.500003000000e-01
2.500004761439e-01
2.500006427539e-01
2.500008582999e-01
2.500010000000e-01
2.500010310465e-01
2.500010931396e-01
2.500011903320e-01
2.500012915454e-01
2.500014718070e-01
2.500016531657e-01
2.500019125917e-01
2.500023494524e-01
2.500029394765e-01
2.500036074078e-01
2.500045330596e-01
2.500056172029e-01
2.500070179317e-01
2.500087870601e-01
2.500111333178e-01
2.500142866971e-01
2.500149915823e-01
2.500158247087e-01
2.500168549384e-01
2.500184177556e-01
2.500207211199e-01
2.500248026274e-01
2.500329656425e-01
2.500492916725e-01
2.500730011553e-01
2.501104542024e-01
2.501853602967e-01
2.503351724854e-01
2.506347968626e-01
2.510573163807e-01
2.514537226111e-01
2.521138905201e-01
2.527689047554e-01
2.533672002749e-01
2.537193483909e-01
2.540130522461e-01
2.543575768400e-01
2.547047144567e-01
2.550859061771e-01
2.555664055546e-01
2.561720016658e-01
2.569812538039e-01
2.583092516112e-01
2.603574415618e-01
2.625353602911e-01
2.659485755214e-01
2.709737055214e-01
2.752416885424e-01
2.793105547508e-01
2.829754399569e-01
2.874508973012e-01
2.924760273012e-01
2.975011573012e-01
3.025262873012e-01
3.075514173012e-01
3.125765473012e-01
3.176016773012e-01
3.226268073012e-01
3.276519373012e-01
3.326770673012e-01
3.377021973012e-01
3.422140088228e-01
3.468447594249e-01
3.510817082971e-01
3.551918414915e-01
3.599077362944e-01
3.649328662944e-01
3.699579962944e-01
3.749831262944e-01
3.788659911588e-01
3.824921332757e-01
3.873069786342e-01
3.923321086342e-01
3.973572386342e-01
4.023823686342e-01
4.074074986342e-01
4.124326286342e-01
4.174577586342e-01
4.224828886342e-01
4.275080186342e-01
4.325331486342e-01
4.375582786342e-01
4.425834086342e-01
4.472985884670e-01
4.523237184670e-01
4.571446772997e-01
4.621698072997e-01
4.671949372997e-01
4.722200672997e-01
4.756089241732e-01
4.789157492564e-01
4.825650837036e-01
4.870584025194e-01
4.919063951130e-01
4.969315251130e-01
5.019566551130e-01
5.069817851130e-01
5.120069151130e-01
5.170320451130e-01
5.220571751130e-01
5.270823051130e-01
5.321074351130e-01
5.371325651130e-01
5.408215258079e-01
5.442505845964e-01
5.483853228329e-01
5.514009318219e-01
5.537545607478e-01
5.560383161443e-01
5.583755406078e-01
5.610200510800e-01
5.650252195198e-01
5.700503495198e-01
5.750754795198e-01
5.786686258626e-01
5.819788331289e-01
5.862760097697e-01
5.913011397697e-01
5.963262697697e-01
6.013513997697e-01
6.063765297697e-01
6.114016597697e-01
6.164267897697e-01
6.214519197697e-01
6.261757557925e-01
6.310753509910e-01
6.361004809910e-01
6.411256109910e-01
6.461507409910e-01
6.493434883717e-01
6.522506029031e-01
6.561355069941e-01
6.603117259248e-01
6.653368559248e-01
6.703619859248e-01
6.753871159248e-01
6.787148068197e-01
6.823534705079e-01
6.866876612190e-01
6.914462739739e-01
6.964714039739e-01
7.014965339739e-01
7.065216639739e-01
7.115467939739e-01
7.165719239739e-01
7.215970539739e-01
7.266221839739e-01
7.316473139739e-01
7.366724439739e-01
7.416975739739e-01
7.467227039739e-01
7.499990000000e-01
7.499991000000e-01
7.499993000000e-01
7.499994977974e-01
7.499997673779e-01
7.500000000000e-01
7.500000275490e-01
7.500000826469e-01
7.500001928428e-01
7.500003897359e-01
7.500007835220e-01
7.500015710943e-01
7.500029569125e-01
7.500048529122e-01
7.500074188521e-01
7.500109376085e-01
7.500143874985e-01
7.500153253561e-01
7.500163182406e-01
7.500173203000e-01
7.500182001378e-01
7.500190992337e-01
7.500201255501e-01
7.500214502601e-01
7.500240996803e-01
7.500293042999e-01
7.500376239803e-01
7.500542633411e-01
7.500875420626e-01
7.501456899210e-01
7.502071369421e-01
7.502753774715e-01
7.503526975400e-01
7.504638195648e-01
7.506359354378e-01
7.509386062998e-01
7.514455043726e-01
7.524593005182e-01
7.531903512385e-01
7.539671548916e-01
7.553827680002e-01
7.570604390400e-01
7.587783094856e-01
7.605556315161e-01
7.627420033130e-01
7.650491756054e-01
7.696635201903e-01
7.732957939852e-01
7.766115407885e-01
7.799264124054e-01
7.840393333908e-01
7.890644633908e-01
7.940895933908e-01
7.991147233908e-01
8.041398533908e-01
8.091649833908e-01
8.141901133908e-01
8.192152433908e-01
8.242403733908e-01
8.292655033908e-01
8.342906333908e-01
8.393157633908e-01
8.443408933908e-01
8.493660233908e-01
8.540399703652e-01
8.582868203951e-01
8.624142930338e-01
8.672563277679e-01
8.722814577679e-01
8.761792472560e-01
8.799663083940e-01
8.836463875856e-01
8.883227164445e-01
8.933478464445e-01
8.982455086700e-01
9.032706386700e-01
9.082957686700e-01
9.133208986700e-01
9.183460286700e-01
9.233711586700e-01
9.283962886700e-01
9.334214186700e-01
9.384465486700e-01
9.434716786700e-01
9.484968086700e-01
9.526185243000e-01
9.555808751893e-01
9.584231766758e-01
9.615708287057e-01
9.646879418932e-01
9.690076961048e-01
9.740328261048e-01
9.790579561048e-01
9.840377943635e-01
9.890629243635e-01
9.940880543635e-01
9.991131843635e-01
1.000000000000e+00
</indep>
<dep tran.v(vin) time>
0.000000000000e+00
1.578690493380e-03
3.157377052246e-03
6.314722628427e-03
1.262919345022e-02
2.525637250762e-02
5.049663180042e-02
1.008644195558e-01
1.655539021561e-01
2.897035310645e-01
4.230411721054e-01
5.602338683230e-01
6.834930222574e-01
7.897530630278e-01
8.763712036576e-01
9.411931696674e-01
9.826067779042e-01
9.995820330498e-01
9.927675843998e-01
9.669424205607e-01
9.244274995048e-01
8.529769508451e-01
7.603120645967e-01
6.680686914902e-01
5.699071030701e-01
4.729686723814e-01
3.437939609546e-01
1.918875165413e-01
4.482017429541e-02
-1.127933751372e-01
-2.676016474335e-01
-4.157544155192e-01
-5.535669809580e-01
-6.776118158617e-01
-7.848038087260e-01
-8.724769940507e-01
-9.384508574046e-01
-9.810845668661e-01
-9.993177820540e-01
-9.934596259852e-01
-9.688928591559e-01
-9.276142804603e-01
-8.573532581598e-01
-7.657690553990e-01
-6.551394572847e-01
-5.393941199343e-01
-4.145694136568e-01
-2.663463642936e-01
-1.114990307899e-01
4.612138829089e-02
2.025947251436e-01
3.540293409751e-01
4.966589147145e-01
6.117061680534e-01
7.164735802092e-01
8.064869882041e-01
8.894111162340e-01
9.502147547757e-01
9.873856602527e-01
9.999993573479e-01
1.000000000000e+00
9.999999999951e-01
9.999999999556e-01
9.999999998881e-01
9.999999997961e-01
9.999999996365e-01
9.999999995065e-01
9.999999994754e-01
9.999999994103e-01
9.999999993008e-01
9.999999991768e-01
9.999999989310e-01
9.999999986513e-01
9.999999981948e-01
9.999999972760e-01
9.999999957361e-01
9.999999935781e-01
9.999999898597e-01
9.999999844292e-01
9.999999756954e-01
9.999999618972e-01
9.999999388327e-01
9.999998992759e-01
9.999998890915e-01
9.999998764220e-01
9.999998598077e-01
9.999998326047e-01
9.999997881170e-01
9.999996964256e-01
9.999994637185e-01
9.999988010067e-01
9.999973701618e-01
9.999939794828e-01
9.999830448376e-01
9.999445626507e-01
9.998011503187e-01
9.994483803359e-01
9.989573048500e-01
9.977956776031e-01
9.962189544183e-01
9.944101182385e-01
9.931811790000e-01
9.920632252167e-01
9.906441877698e-01
9.890970122846e-01
9.872625553270e-01
9.847485056031e-01
9.812603827693e-01
9.760450635959e-01
9.661213592871e-01
9.475265640533e-01
9.234538485854e-01
8.770838321397e-01
7.906610440384e-01
7.017174804225e-01
6.051689650005e-01
5.097053924889e-01
3.841081593068e-01
2.341776132367e-01
7.842285006661e-02
-7.928236301224e-02
-2.350157492884e-01
-3.849040732341e-01
-5.252194715097e-01
-6.524721684242e-01
-7.634972699336e-01
-8.555334775269e-01
-9.262917643128e-01
-9.702332704932e-01
-9.950911577944e-01
-9.994226378942e-01
-9.867275968586e-01
-9.519482209959e-01
-8.919620384435e-01
-8.097919225724e-01
-7.074815213102e-01
-6.162281742035e-01
-5.227092706159e-01
-3.882787168587e-01
-2.385708218486e-01
-8.292944651580e-02
7.477446201047e-02
2.306186594642e-01
3.807271543397e-01
5.213666074395e-01
6.490391835248e-01
7.605695457626e-01
8.531838293332e-01
9.245786300529e-01
9.729782921984e-01
9.964009277302e-01
9.973365540516e-01
9.749151864152e-01
9.277994482089e-01
8.576084666571e-01
7.660879573700e-01
6.934513318725e-01
6.149962985861e-01
5.207541103634e-01
3.954633551293e-01
2.515371050233e-01
9.624974882562e-02
-6.143142898983e-02
-2.175847494911e-01
-3.683265329922e-01
-5.099076898127e-01
-6.388069636586e-01
-7.518185085715e-01
-8.461316213281e-01
-9.194006462678e-01
-9.587143150163e-01
-9.837319283681e-01
-9.987136829414e-01
-9.990316471252e-01
-9.930516059895e-01
-9.820609812700e-01
-9.655817881909e-01
-9.406672034022e-01
-8.906465503563e-01
-8.080862375901e-01
-7.054280614197e-01
-6.210995428036e-01
-5.363881350081e-01
-4.179175349834e-01
-2.698938165054e-01
-1.151575854198e-01
4.244272293134e-02
1.989874409156e-01
3.505831544241e-01
4.934595357356e-01
6.240631151066e-01
7.327372442109e-01
8.284088313491e-01
9.061666009886e-01
9.613871565029e-01
9.926971108325e-01
9.997873138548e-01
9.975014585086e-01
9.814806554685e-01
9.479847065555e-01
8.861523029292e-01
8.022804595609e-01
6.984551479389e-01
6.199618378442e-01
5.264180241722e-01
4.061340135811e-01
2.655007043501e-01
1.106272120434e-01
-4.699768288976e-02
-2.034537013254e-01
-3.548496351957e-01
-4.974201254865e-01
-6.276193102514e-01
-7.422090135272e-01
-8.383392818104e-01
-9.136192650764e-01
-9.661766794645e-01
-9.947043727350e-01
-9.999999995065e-01
-9.999999996003e-01
-9.999999997582e-01
-9.999999998755e-01
-9.999999999733e-01
-1.000000000000e+00
-9.999999999996e-01
-9.999999999966e-01
-9.999999999816e-01
-9.999999999250e-01
-9.999999996970e-01
-9.999999987819e-01
-9.999999956853e-01
-9.999999883782e-01
-9.999999728392e-01
-9.999999409643e-01
-9.999998978495e-01
-9.999998840980e-01
-9.999998685936e-01
-9.999998519595e-01
-9.999998365371e-01
-9.999998199879e-01
-9.999998001219e-01
-9.999997729430e-01
-9.999997133894e-01
-9.999995762278e-01
-9.999993014473e-01
-9.999985469428e-01
-9.999962181611e-01
-9.999895256277e-01
-9.999788269541e-01
-9.999625782703e-01
-9.999386138823e-01
-9.998938401751e-01
-9.998004363870e-01
-9.995652844143e-01
-9.989690587117e-01
-9.970168375374e-01
-9.949813933936e-01
-9.922434994117e-01
-9.857358502583e-01
-9.755008038388e-01
-9.622134452002e-01
-9.455177986704e-01
-9.209434100141e-01
-8.903040925266e-01
-8.151850533838e-01
-7.439334365760e-01
-6.704166031781e-01
-5.896539835749e-01
-4.806704588626e-01
-3.368317766734e-01
-1.846157719624e-01
-2.780819967536e-02
1.296909886455e-01
2.839646403178e-01
4.311758247839e-01
5.676632616763e-01
6.900323802976e-01
7.952397457810e-01
8.806687521725e-01
9.441946998778e-01
9.842376389356e-01
9.998016638574e-01
9.919565374732e-01
9.663029934780e-01
9.249065817908e-01
8.566149674710e-01
7.648469284816e-01
6.804312922327e-01
5.886412293578e-01
4.914586921816e-01
3.586793154610e-01
2.074656898336e-01
5.509106547076e-02
-1.025694405797e-01
-2.576789483451e-01
-4.063797387422e-01
-5.449734835053e-01
-6.700132260829e-01
-7.783891106829e-01
-8.674057273063e-01
-9.348491491238e-01
-9.790419949153e-01
-9.988851471154e-01
-9.966182769508e-01
-9.846693148074e-01
-9.651914598816e-01
-9.346551813105e-01
-8.954143745038e-01
-8.269446494338e-01
-7.282622921583e-01
-6.114673679446e-01
-4.807128564528e-01
-3.368773009116e-01
-1.846632906180e-01
-2.785653091472e-02
-1.224646799147e-15
</dep>
<dep tran.v(vin_3) time>
1.000000000000e+00
1.000000000000e+00
1.000000000000e+00
1.000000000000e+00
1.000000000000e+00
1.000000000000e+00
1.000000000000e+00
1.000000000000e+00
1.000000000000e+00
1.000000000000e+00
1.000000000000e+00
1.000000000000e+00
1.000000000000e+00
1.000000000000e+00
1.000000000000e+00
1.000000000000e+00
1.000000000000e+00
1.000000000000e+00
1.000000000000e+00
1.000000000000e+00
1.000000000000e+00
1.000000000000e+00
1.000000000000e+00
1.000000000000e+00
1.000000000000e+00
1.000000000000e+00
1.000000000000e+00
1.000000000000e+00
1.000000000000e+00
1.000000000000e+00
1.000000000000e+00
1.000000000000e+00
1.000000000000e+00
1.000000000000e+00
1.000000000000e+00
1.000000000000e+00
1.000000000000e+00
1.000000000000e+00
1.000000000000e+00
1.000000000000e+00
1.000000000000e+00
1.000000000000e+00
1.000000000000e+00
1.000000000000e+00
1.000000000000e+00
1.000000000000e+00
1.000000000000e+00
1.000000000000e+00
1.000000000000e+00
1.000000000000e+00
1.000000000000e+00
1.000000000000e+00
1.000000000000e+00
1.000000000000e+00
1.000000000000e+00
1.000000000000e+00
1.000000000000e+00
1.000000000000e+00
1.000000000000e+00
1.000000000000e+00
1.000000000000e+00
1.000000000000e+00
1.000000000000e+00
1.000000000000e+00
1.000000000000e+00
1.000000000000e+00
1.000000000000e+00
1.000000000000e+00
1.000000000000e+00
1.000000000000e+00
1.000000000000e+00
1.000000000000e+00
1.000000000000e+00
1.000000000000e+00
1.000000000000e+00
1.000000000000e+00
1.000000000000e+00
1.000000000000e+00
1.000000000000e+00
1.000000000000e+00
1.000000000000e+00
1.000000000000e+00
1.000000000000e+00
1.000000000000e+00
1.000000000000e+00
1.000000000000e+00
1.000000000000e+00
1.000000000000e+00
1.000000000000e+00
1.000000000000e+00
1.000000000000e+00
1.000000000000e+00
1.000000000000e+00
1.000000000000e+00
1.000000000000e+00
1.000000000000e+00
1.000000000000e+00
1.000000000000e+00
1.000000000000e+00
1.000000000000e+00
1.000000000000e+00
1.000000000000e+00
1.000000000000e+00
1.000000000000e+00
1.000000000000e+00
1.000000000000e+00
1.000000000000e+00
1.000000000000e+00
1.000000000000e+00
1.000000000000e+00
1.000000000000e+00
1.000000000000e+00
1.000000000000e+00
1.000000000000e+00
1.000000000000e+00
1.000000000000e+00
1.000000000000e+00
1.000000000000e+00
1.000000000000e+00
1.000000000000e+00
1.000000000000e+00
1.000000000000e+00
1.000000000000e+00
1.000000000000e+00
1.000000000000e+00
1.000000000000e+00
1.000000000000e+00
1.000000000000e+00
1.000000000000e+00
1.000000000000e+00
1.000000000000e+00
1.000000000000e+00
1.000000000000e+00
1.000000000000e+00
1.000000000000e+00
1.000000000000e+00
1.000000000000e+00
1.000000000000e+00
1.000000000000e+00
1.000000000000e+00
1.000000000000e+00
1.000000000000e+00
1.000000000000e+00
1.000000000000e+00
1.000000000000e+00
1.000000000000e+00
1.000000000000e+00
1.000000000000e+00
1.000000000000e+00
1.000000000000e+00
1.000000000000e+00
1.000000000000e+00
1.000000000000e+00
1.000000000000e+00
1.000000000000e+00
1.000000000000e+00
1.000000000000e+00
1.000000000000e+00
1.000000000000e+00
1.000000000000e+00
1.000000000000e+00
1.000000000000e+00
1.000000000000e+00
1.000000000000e+00
1.000000000000e+00
1.000000000000e+00
1.000000000000e+00
1.000000000000e+00
1.000000000000e+00
1.000000000000e+00
1.000000000000e+00
1.000000000000e+00
1.000000000000e+00
1.000000000000e+00
1.000000000000e+00
1.000000000000e+00
1.000000000000e+00
1.000000000000e+00
1.000000000000e+00
1.000000000000e+00
1.000000000000e+00
1.000000000000e+00
1.000000000000e+00
1.000000000000e+00
1.000000000000e+00
1.000000000000e+00
1.000000000000e+00
1.000000000000e+00
1.000000000000e+00
1.000000000000e+00
1.000000000000e+00
1.000000000000e+00
1.000000000000e+00
1.000000000000e+00
1.000000000000e+00
1.000000000000e+00
1.000000000000e+00
1.000000000000e+00
1.000000000000e+00
1.000000000000e+00
1.000000000000e+00
1.000000000000e+00
1.000000000000e+00
1.000000000000e+00
1.000000000000e+00
1.000000000000e+00
1.000000000000e+00
1.000000000000e+00
1.000000000000e+00
1.000000000000e+00
1.000000000000e+00
1.000000000000e+00
1.000000000000e+00
1.000000000000e+00
1.000000000000e+00
1.000000000000e+00
1.000000000000e+00
1.000000000000e+00
1.000000000000e+00
1.000000000000e+00
1.000000000000e+00
1.000000000000e+00
1.000000000000e+00
1.000000000000e+00
1.000000000000e+00
1.000000000000e+00
1.000000000000e+00
1.000000000000e+00
1.000000000000e+00
1.000000000000e+00
1.000000000000e+00
1.000000000000e+00
1.000000000000e+00
1.000000000000e+00
1.000000000000e+00
1.000000000000e+00
1.000000000000e+00
1.000000000000e+00
1.000000000000e+00
1.000000000000e+00
1.000000000000e+00
1.000000000000e+00
1.000000000000e+00
1.000000000000e+00
1.000000000000e+00
1.000000000000e+00
1.000000000000e+00
1.000000000000e+00
1.000000000000e+00
1.000000000000e+00
1.000000000000e+00
1.000000000000e+00
1.000000000000e+00
1.000000000000e+00
1.000000000000e+00
1.000000000000e+00
1.000000000000e+00
1.000000000000e+00
1.000000000000e+00
1.000000000000e+00
1.000000000000e+00
1.000000000000e+00
1.000000000000e+00
1.000000000000e+00
1.000000000000e+00
1.000000000000e+00
1.000000000000e+00
1.000000000000e+00
1.000000000000e+00
1.000000000000e+00
1.000000000000e+00
1.000000000000e+00
1.000000000000e+00
1.000000000000e+00
1.000000000000e+00
1.000000000000e+00
1.000000000000e+00
1.000000000000e+00
1.000000000000e+00
1.000000000000e+00
1.000000000000e+00
1.000000000000e+00
1.000000000000e+00
1.000000000000e+00
1.000000000000e+00
1.000000000000e+00
1.000000000000e+00
1.000000000000e+00
1.000000000000e+00
1.000000000000e+00
1.000000000000e+00
1.000000000000e+00
1.000000000000e+00
1.000000000000e+00
1.000000000000e+00
1.000000000000e+00
1.000000000000e+00
1.000000000000e+00
1.000000000000e+00
1.000000000000e+00
1.000000000000e+00
1.000000000000e+00
1.000000000000e+00
1.000000000000e+00
1.000000000000e+00
1.000000000000e+00
1.000000000000e+00
1.000000000000e+00
1.000000000000e+00
1.000000000000e+00
1.000000000000e+00
1.000000000000e+00
1.000000000000e+00
1.000000000000e+00
1.000000000000e+00
1.000000000000e+00
</dep>
<dep tran.v(vm) time>
-5.942957795190e+00
-5.942957794491e+00
-5.942957793100e+00
-5.942957788982e+00
-5.942957773245e+00
-5.942957715685e+00
-5.942957512374e+00
-5.942956868994e+00
-5.942955847497e+00
-5.942954582120e+00
-5.942956241410e+00
-5.942963210095e+00
-5.942975560612e+00
-5.942992837572e+00
-5.943014039107e+00
-5.943036960152e+00
-5.943059155311e+00
-5.943080563932e+00
-5.943100554170e+00
-5.943119332638e+00
-5.943138590595e+00
-5.943163374307e+00
-5.943190626379e+00
-5.943209869322e+00
-5.943222504997e+00
-5.943231535491e+00
-5.943239348091e+00
-5.943244040342e+00
-5.943246550574e+00
-5.943249086060e+00
-5.943250909548e+00
-5.943249224961e+00
-5.943242105332e+00
-5.943230017034e+00
-5.943213533813e+00
-5.943192956191e+00
-5.943167620567e+00
-5.943136756618e+00
-5.943102082012e+00
-5.943067476137e+00
-5.943037257502e+00
-5.943010316010e+00
-5.942983912245e+00
-5.942964997728e+00
-5.942947888725e+00
-5.942932852663e+00
-5.942922555193e+00
-5.942916106667e+00
-5.942912986707e+00
-5.942910558510e+00
-5.942908049182e+00
-5.942907594246e+00
-5.942911986075e+00
-5.942920313719e+00
-5.942932931021e+00
-5.942949130577e+00
-5.942970889521e+00
-5.942993890226e+00
-5.943015874492e+00
-5.943037188318e+00
-5.943037341282e+00
-5.943037341700e+00
-5.943037342537e+00
-5.943037343279e+00
-5.943037343982e+00
-5.943037344891e+00
-5.943037345489e+00
-5.943037345621e+00
-5.943037345886e+00
-5.943037346300e+00
-5.943037346730e+00
-5.943037347494e+00
-5.943037348262e+00
-5.943037349361e+00
-5.943037351212e+00
-5.943037353712e+00
-5.943037356541e+00
-5.943037360462e+00
-5.943037365055e+00
-5.943037370987e+00
-5.943037378480e+00
-5.943037388414e+00
-5.943037401762e+00
-5.943037404745e+00
-5.943037408270e+00
