<Qucs Dataset 26.1.1>
<indep time 222>
0.000000000000e+00
5.025130000000e-05
1.005026000000e-04
2.010052000000e-04
4.020104000000e-04
8.040208000000e-04
1.608041600000e-03
3.216083200000e-03
5.704844509588e-03
9.639948509867e-03
1.419547810177e-02
1.875374505557e-02
2.297052354523e-02
2.710924306951e-02
3.076209113644e-02
3.454499803574e-02
3.854372583403e-02
4.252432979923e-02
4.686292210034e-02
5.163355197548e-02
5.665868197548e-02
6.168381197548e-02
6.670894197548e-02
7.173407197548e-02
7.675920197548e-02
8.178433197548e-02
8.640840290144e-02
9.073416447407e-02
9.501266762256e-02
1.000085366187e-01
1.050336666187e-01
1.100587966187e-01
1.150839266187e-01
1.201090566187e-01
1.251341866187e-01
1.301593166187e-01
1.351844466187e-01
1.396324158073e-01
1.441810878555e-01
1.492062178555e-01
1.542313478555e-01
1.592564778555e-01
1.642816078555e-01
1.693067378555e-01
1.743318678555e-01
1.793569978555e-01
1.843821278555e-01
1.894072578555e-01
1.944323878555e-01
1.994575178555e-01
2.044826478555e-01
2.095077778555e-01
2.145329078555e-01
2.195580378555e-01
2.227585859904e-01
2.264365697644e-01
2.305395299268e-01
2.345676882145e-01
2.395928182145e-01
2.446179482145e-01
2.496430782145e-01
2.546682082145e-01
2.596933382145e-01
2.647184682145e-01
2.697435982145e-01
2.747687282145e-01
2.785020171842e-01
2.825391671844e-01
2.874844868971e-01
2.909972225797e-01
2.942118967691e-01
2.981717241230e-01
3.019524253183e-01
3.057954321353e-01
3.095764035373e-01
3.132503618845e-01
3.170489492820e-01
3.208392201562e-01
3.247954584457e-01
3.289120111061e-01
3.324311969685e-01
3.357459351415e-01
3.396293760267e-01
3.446545060267e-01
3.496796360267e-01
3.547047660267e-01
3.597298960267e-01
3.647550260267e-01
3.697801560267e-01
3.748052860267e-01
3.798304160267e-01
3.842904505443e-01
3.887077635975e-01
3.937328935975e-01
3.986499363945e-01
4.036750663945e-01
4.087001963945e-01
4.137253263945e-01
4.187504563945e-01
4.237755863945e-01
4.288007163945e-01
4.334801205656e-01
4.383752335791e-01
4.432078088669e-01
4.480010356883e-01
4.530261656883e-01
4.580512956883e-01
4.630764256883e-01
4.681015556883e-01
4.731266856883e-01
4.781518156883e-01
4.831769456883e-01
4.882020756883e-01
4.932272056883e-01
4.982523356883e-01
5.032774656883e-01
5.083025956883e-01
5.133277256883e-01
5.183528556883e-01
5.233779856883e-01
5.284031156883e-01
5.313615658694e-01
5.341830999640e-01
5.370740188838e-01
5.400782927111e-01
5.432752798386e-01
5.466394079768e-01
5.505418552722e-01
5.552778440213e-01
5.603029740213e-01
5.653281040213e-01
5.703532340213e-01
5.753783640213e-01
5.804034940213e-01
5.854286240213e-01
5.904537540213e-01
5.954788840213e-01
6.005040140213e-01
6.055291440213e-01
6.105542740213e-01
6.155794040213e-01
6.206045340213e-01
6.256296640213e-01
6.306547940213e-01
6.356799240213e-01
6.407050540213e-01
6.457301840213e-01
6.507553140213e-01
6.557804440213e-01
6.608055740213e-01
6.658307040213e-01
6.708558340213e-01
6.758809640213e-01
6.797641365974e-01
6.838326705623e-01
6.880759669681e-01
6.931010969681e-01
6.979060750269e-01
7.029312050269e-01
7.079563350269e-01
7.129814650269e-01
7.180065950269e-01
7.230317250269e-01
7.280568550269e-01
7.316915691562e-01
7.350929807388e-01
7.389837020683e-01
7.426323939230e-01
7.466154176522e-01
7.504789939747e-01
7.544724756948e-01
7.586547545035e-01
7.629758741102e-01
7.676214696153e-01
7.725615848627e-01
7.775867148627e-01
7.826118448627e-01
7.865790453538e-01
7.907908969140e-01
7.958160269140e-01
8.008411569140e-01
8.058662869140e-01
8.108914169140e-01
8.159165469140e-01
8.209416769140e-01
8.245002627552e-01
8.277842134436e-01
8.314234628311e-01
8.364485928311e-01
8.414737228311e-01
8.464988528311e-01
8.515239828311e-01
8.565491128311e-01
8.615742428311e-01
8.665993728311e-01
8.716245028311e-01
8.766496328311e-01
8.811337727956e-01
8.856718315206e-01
8.899903259024e-01
8.950154559024e-01
8.999835653326e-01
9.050086953326e-01
9.100338253326e-01
9.150589553326e-01
9.200840853326e-01
9.251092153326e-01
9.301343453326e-01
9.351594753326e-01
9.401846053326e-01
9.452097353326e-01
9.502348653326e-01
9.552599953326e-01
9.602851253326e-01
9.653102553326e-01
9.703353853326e-01
9.753605153326e-01
9.803856453326e-01
9.854107753326e-01
9.904359053326e-01
9.954610353326e-01
1.000000000000e+00
</indep>
<dep tran.v(vin) time>
0.000000000000e+00
1.578690493380e-03
3.157377052246e-03
6.314722628427e-03
1.262919345022e-02
2.525637250762e-02
5.049663180042e-02
1.008644195558e-01
1.782650493069e-01
2.982397209082e-01
4.313278845179e-01
5.556680552247e-01
6.606169564180e-01
7.523762515806e-01
8.228564293044e-01
8.844262381155e-01
9.359287120838e-01
9.725480687141e-01
9.951474635652e-01
9.986834409421e-01
9.781997238728e-01
9.333872612837e-01
8.653605811917e-01
7.758115709979e-01
6.669673986592e-01
5.415351209306e-01
4.141353122927e-01
2.870011467533e-01
1.560413871738e-01
-2.681857839242e-04
-1.574790237194e-01
-3.107732104851e-01
-4.563381757352e-01
-5.905535821197e-01
-7.100813664731e-01
-8.119487605792e-01
-8.936222267080e-01
-9.474246540138e-01
-9.833373693677e-01
-9.996890791156e-01
-9.911775829033e-01
-9.580145696329e-01
-9.010248345794e-01
-8.216257659588e-01
-7.217920931518e-01
-6.040067733305e-01
-4.711992379820e-01
-3.266725351974e-01
-1.740211797645e-01
-1.704175421030e-02
1.403615157708e-01
2.942738630757e-01
4.408673431256e-01
5.764960384417e-01
6.556038743980e-01
7.382885021131e-01
8.188631677061e-01
8.847586782901e-01
9.470258688072e-01
9.857396368476e-01
9.999371346536e-01
9.892652571254e-01
9.539894238764e-01
8.949869779984e-01
8.137253657151e-01
7.122256396168e-01
6.251931978695e-01
5.214490184001e-01
3.831336474428e-01
2.790748956251e-01
1.808381902784e-01
5.740540501733e-02
-6.129879650327e-02
-1.810646337358e-01
-2.963336544137e-01
-4.043539936123e-01
-5.103644512816e-01
-6.089081413591e-01
-7.025484427748e-01
-7.884577657777e-01
-8.515087870261e-01
-9.013998313731e-01
-9.473940924968e-01
-9.859322531573e-01
-9.999493530349e-01
-9.890967736957e-01
-9.536444289768e-01
-8.944740519759e-01
-8.130572655216e-01
-7.114189815312e-01
-5.920870395514e-01
-4.737376299387e-01
-3.473616340820e-01
-1.956173810525e-01
-4.240078388278e-02
1.151992828928e-01
2.699342353474e-01
4.179556699400e-01
5.555821546217e-01
6.793907895072e-01
7.863023376086e-01
8.683219158353e-01
9.340513498260e-01
9.773201043356e-01
9.980287709218e-01
9.954842693997e-01
9.681811394829e-01
9.167984356460e-01
8.426140939743e-01
7.474731486935e-01
6.337418444362e-01
5.042487855165e-01
3.622145858848e-01
2.111717694354e-01
5.487691282051e-02
-1.027827841376e-01
-2.578861767561e-01
-4.065756980412e-01
-5.451533000006e-01
-6.701724275693e-01
-7.785237376701e-01
-8.334117443651e-01
-8.790633369818e-01
-9.186756600520e-01
-9.518137086312e-01
-9.777667839159e-01
-9.944320170331e-01
-9.998551141847e-01
-9.862852580543e-01
-9.480721914036e-01
-8.862796792509e-01
-8.024445593877e-01
-6.986518899539e-01
-5.774830920845e-01
-4.419517475424e-01
-2.954286481106e-01
-1.415579608358e-01
1.583340582732e-02
1.728309808222e-01
3.255300870610e-01
4.701329544092e-01
6.030431737948e-01
7.209551432784e-01
8.209362814767e-01
9.004999636151e-01
9.576673662200e-01
9.910166823168e-01
9.997184831039e-01
9.835563466262e-01
9.429322403916e-01
8.788565240625e-01
7.929228208615e-01
6.872683826666e-01
5.937637695968e-01
4.863535736238e-01
3.659045272532e-01
2.150425811301e-01
6.573515934476e-02
-9.195642912006e-02
-2.473609748590e-01
-3.966134209172e-01
-5.360017188349e-01
-6.620591507776e-01
-7.716505500634e-01
-8.390964013094e-01
-8.923288617464e-01
-9.407072068628e-01
-9.733324709186e-01
-9.943523119216e-01
-9.998867803898e-01
-9.901451250903e-01
-9.632631376566e-01
-9.180553751977e-01
-8.506400643373e-01
-7.591480264898e-01
-6.473741219441e-01
-5.194994151957e-01
-4.092498198011e-01
-2.852933706767e-01
-1.310652186963e-01
2.642264832424e-02
1.832533592739e-01
3.355263871303e-01
4.794545587283e-01
6.114582453126e-01
6.959187244847e-01
7.661743878057e-01
8.344848287883e-01
9.107374910767e-01
9.643392569120e-01
9.939570000539e-01
9.988540994234e-01
9.789087595617e-01
9.346170397969e-01
8.670805167830e-01
7.779788872544e-01
6.695281923908e-01
5.586025386079e-01
4.350850091155e-01
3.093060258973e-01
1.559548631899e-01
5.163102812612e-04
-1.567042679300e-01
-3.100274638753e-01
-4.556399857234e-01
-5.899203133469e-01
-7.095287689282e-01
-8.114905778821e-01
-8.932698542925e-01
-9.528326707763e-01
-9.886976441667e-01
-9.999727789036e-01
-9.863776518003e-01
-9.482503864316e-01
-8.865392436834e-01
-8.027790376135e-01
-6.990529631855e-01
-5.779407852541e-01
-4.424546773912e-01
-2.959643063010e-01
-1.421130250458e-01
-1.224646799147e-15
</dep>
<dep tran.v(vin_3) time>
1.000000000000e+00
1.000000000000e+00
1.000000000000e+00
1.000000000000e+00
1.000000000000e+00
1.000000000000e+00
1.000000000000e+00
1.000000000000e+00
1.000000000000e+00
1.000000000000e+00
1.000000000000e+00
1.000000000000e+00
1.000000000000e+00
1.000000000000e+00
1.000000000000e+00
1.000000000000e+00
1.000000000000e+00
1.000000000000e+00
1.000000000000e+00
1.000000000000e+00
1.000000000000e+00
1.000000000000e+00
1.000000000000e+00
1.000000000000e+00
1.000000000000e+00
1.000000000000e+00
1.000000000000e+00
1.000000000000e+00
1.000000000000e+00
1.000000000000e+00
1.000000000000e+00
1.000000000000e+00
1.000000000000e+00
1.000000000000e+00
1.000000000000e+00
1.000000000000e+00
1.000000000000e+00
1.000000000000e+00
1.000000000000e+00
1.000000000000e+00
1.000000000000e+00
1.000000000000e+00
1.000000000000e+00
1.000000000000e+00
1.000000000000e+00
1.000000000000e+00
1.000000000000e+00
1.000000000000e+00
1.000000000000e+00
1.000000000000e+00
1.000000000000e+00
1.000000000000e+00
1.000000000000e+00
1.000000000000e+00
1.000000000000e+00
1.000000000000e+00
1.000000000000e+00
1.000000000000e+00
1.000000000000e+00
1.000000000000e+00
1.000000000000e+00
1.000000000000e+00
1.000000000000e+00
1.000000000000e+00
1.000000000000e+00
1.000000000000e+00
1.000000000000e+00
1.000000000000e+00
1.000000000000e+00
1.000000000000e+00
1.000000000000e+00
1.000000000000e+00
1.000000000000e+00
1.000000000000e+00
1.000000000000e+00
1.000000000000e+00
1.000000000000e+00
1.000000000000e+00
1.000000000000e+00
1.000000000000e+00
1.000000000000e+00
1.000000000000e+00
1.000000000000e+00
1.000000000000e+00
1.000000000000e+00
1.000000000000e+00
1.000000000000e+00
1.000000000000e+00
1.000000000000e+00
1.000000000000e+00
1.000000000000e+00
1.000000000000e+00
1.000000000000e+00
1.000000000000e+00
1.000000000000e+00
1.000000000000e+00
1.000000000000e+00
1.000000000000e+00
1.000000000000e+00
1.000000000000e+00
1.000000000000e+00
1.000000000000e+00
1.000000000000e+00
1.000000000000e+00
1.000000000000e+00
1.000000000000e+00
1.000000000000e+00
1.000000000000e+00
1.000000000000e+00
1.000000000000e+00
1.000000000000e+00
1.000000000000e+00
1.000000000000e+00
1.000000000000e+00
1.000000000000e+00
1.000000000000e+00
1.000000000000e+00
1.000000000000e+00
1.000000000000e+00
1.000000000000e+00
1.000000000000e+00
1.000000000000e+00
1.000000000000e+00
1.000000000000e+00
1.000000000000e+00
1.000000000000e+00
1.000000000000e+00
1.000000000000e+00
1.000000000000e+00
1.000000000000e+00
1.000000000000e+00
1.000000000000e+00
1.000000000000e+00
1.000000000000e+00
1.000000000000e+00
1.000000000000e+00
1.000000000000e+00
1.000000000000e+00
1.000000000000e+00
1.000000000000e+00
1.000000000000e+00
1.000000000000e+00
1.000000000000e+00
1.000000000000e+00
1.000000000000e+00
1.000000000000e+00
1.000000000000e+00
1.000000000000e+00
1.000000000000e+00
1.000000000000e+00
1.000000000000e+00
1.000000000000e+00
1.000000000000e+00
1.000000000000e+00
1.000000000000e+00
1.000000000000e+00
1.000000000000e+00
1.000000000000e+00
1.000000000000e+00
1.000000000000e+00
1.000000000000e+00
1.000000000000e+00
1.000000000000e+00
1.000000000000e+00
1.000000000000e+00
1.000000000000e+00
1.000000000000e+00
1.000000000000e+00
1.000000000000e+00
1.000000000000e+00
1.000000000000e+00
1.000000000000e+00
1.000000000000e+00
1.000000000000e+00
1.000000000000e+00
1.000000000000e+00
1.000000000000e+00
1.000000000000e+00
1.000000000000e+00
1.000000000000e+00
1.000000000000e+00
1.000000000000e+00
1.000000000000e+00
1.000000000000e+00
1.000000000000e+00
1.000000000000e+00
1.000000000000e+00
1.000000000000e+00
1.000000000000e+00
1.000000000000e+00
1.000000000000e+00
1.000000000000e+00
1.000000000000e+00
1.000000000000e+00
1.000000000000e+00
1.000000000000e+00
1.000000000000e+00
1.000000000000e+00
1.000000000000e+00
1.000000000000e+00
1.000000000000e+00
1.000000000000e+00
1.000000000000e+00
1.000000000000e+00
1.000000000000e+00
1.000000000000e+00
1.000000000000e+00
1.000000000000e+00
1.000000000000e+00
1.000000000000e+00
1.000000000000e+00
1.000000000000e+00
1.000000000000e+00
1.000000000000e+00
1.000000000000e+00
1.000000000000e+00
1.000000000000e+00
1.000000000000e+00
1.000000000000e+00
1.000000000000e+00
1.000000000000e+00
1.000000000000e+00
</dep>
<dep tran.v(vm) time>
-1.786344617911e+00
-1.785856198263e+00
-1.785339298013e+00
-1.784256657389e+00
-1.781874435569e+00
-1.776692752300e+00
-1.765920666798e+00
-1.744567059538e+00
-1.713124224346e+00
-1.676264308042e+00
-1.652632858031e+00
-1.711892398178e+00
-1.845119881524e+00
-1.981270266942e+00
-2.093902683722e+00
-2.246762082138e+00
-2.458588743625e+00
-2.670705204136e+00
-2.854504792001e+00
-2.974367842232e+00
-2.993283203522e+00
-2.898977497473e+00
-2.693142896363e+00
-2.382244463021e+00
-2.063365993715e+00
-1.883708306050e+00
-1.745054628085e+00
-1.708974762952e+00
-1.724227158434e+00
-1.784734683583e+00
-1.852451243669e+00
-1.921409713854e+00
-2.002992791450e+00
-2.092827881068e+00
-2.233347420916e+00
-2.407999776574e+00
-2.559326911299e+00
-2.661570461475e+00
-2.735060385783e+00
-2.776861966783e+00
-2.777645499898e+00
-2.736281183490e+00
-2.655011851523e+00
-2.534727237575e+00
-2.379659300031e+00
-2.195675092063e+00
-2.057389380461e+00
-1.954533947778e+00
-1.862465154874e+00
-1.796286852967e+00
-1.726861299176e+00
-1.679075150314e+00
-1.651139239203e+00
-1.735705797955e+00
-1.839333629455e+00
-1.960158379584e+00
-2.087880016546e+00
-2.246553552913e+00
-2.513361576201e+00
-2.765273028937e+00
-2.935021338210e+00
-2.999043340238e+00
-2.949667970120e+00
-2.787723493149e+00
-2.517491675839e+00
-2.153898612099e+00
-1.991745702186e+00
-1.862378609985e+00
-1.726113255127e+00
-1.708826262380e+00
-1.717361803496e+00
-1.760292198168e+00
-1.811454963880e+00
-1.862080904097e+00
-1.914889744120e+00
-1.971818895278e+00
-2.035061789616e+00
-2.110285598944e+00
-2.220592612044e+00
-2.366433968604e+00
-2.481096519272e+00
-2.573924951748e+00
-2.661711789693e+00
-2.740736663345e+00
-2.778755013959e+00
-2.775446987881e+00
-2.730379152441e+00
-2.645225660057e+00
-2.521552694663e+00
-2.363290990995e+00
-2.178400219285e+00
-2.057195961581e+00
-1.970187718843e+00
-1.872486061450e+00
-1.807447554212e+00
-1.737055166021e+00
-1.685155084486e+00
-1.652994270508e+00
-1.712032340661e+00
-1.871263271136e+00
-2.033082557244e+00
-2.204942823113e+00
-2.448105782478e+00
-2.702038197967e+00
-2.891002211272e+00
-2.990388354050e+00
-2.978505109987e+00
-2.852766523061e+00
-2.617309970791e+00
-2.278293042813e+00
-2.010000085485e+00
-1.840874442887e+00
-1.724202579093e+00
-1.709405247523e+00
-1.761763131723e+00
-1.828848357011e+00
-1.896470784447e+00
-1.973538067247e+00
-2.058853447484e+00
-2.171655060023e+00
-2.347898539567e+00
-2.447983184755e+00
-2.532023468614e+00
-2.606580930937e+00
-2.670344075033e+00
-2.723118849069e+00
-2.760579441551e+00
-2.781316003573e+00
-2.772244074278e+00
-2.722811676491e+00
-2.632806127754e+00
-2.505364264716e+00
-2.343058892179e+00
-2.158648368278e+00
-2.031526960725e+00
-1.935670335221e+00
-1.846018682144e+00
-1.783301182071e+00
-1.712737276731e+00
-1.673854151752e+00
-1.650014662688e+00
-1.766756212770e+00
-1.933549111302e+00
-2.091173623542e+00
-2.302969742426e+00
-2.574808207601e+00
-2.811606514330e+00
-2.959155547019e+00
-2.998085173473e+00
-2.923559990362e+00
-2.737056099023e+00
-2.443910714673e+00
-2.098473741233e+00
-1.949642005137e+00
-1.821855273474e+00
-1.721312961299e+00
-1.711052251788e+00
-1.756139920979e+00
-1.825225983949e+00
-1.890693067224e+00
-1.969040152213e+00
-2.051629056409e+00
-2.161092630055e+00
-2.335821325400e+00
-2.458670769631e+00
-2.556661459506e+00
-2.649095336126e+00
-2.713633164436e+00
-2.760788090222e+00
-2.780903244379e+00
-2.776656576961e+00
-2.743317383583e+00
-2.680023072115e+00
-2.579052206151e+00
-2.438193578107e+00
-2.262304414511e+00
-2.097304552202e+00
-2.010468201955e+00
-1.927147349965e+00
-1.842426556073e+00
-1.777915203016e+00
-1.709473137478e+00
-1.670880744262e+00
-1.651270660385e+00
-1.776993058048e+00
-1.896936728419e+00
-2.002111910249e+00
-2.114922662140e+00
-2.342226220482e+00
-2.615011862021e+00
-2.840459262719e+00
-2.972302051611e+00
-2.993967994715e+00
-2.902190594276e+00
-2.698881464338e+00
-2.390152521168e+00
-2.067592261331e+00
-1.905234622151e+00
-1.765294385305e+00
-1.710959801503e+00
-1.724534702021e+00
-1.784297241940e+00
-1.852199880009e+00
-1.920956575161e+00
-2.002670237182e+00
-2.092265678630e+00
-2.232462406930e+00
-2.407159024116e+00
-2.558665769701e+00
-2.672128757709e+00
-2.746992385503e+00
-2.780338303935e+00
-2.772613169997e+00
-2.722821583025e+00
-2.633388757564e+00
-2.505655947625e+00
-2.343912601880e+00
-2.158042507900e+00
-2.035381098172e+00
-1.934015020291e+00
-1.847458740253e+00
-1.789126106740e+00
</dep>
<dep tran.v(vout_1) time>
4.254711538399e-01
4.261256888668e-01
4.266606326406e-01
4.275083935140e-01
4.280461539848e-01
4.258047365678e-01
4.140212038652e-01
3.801064392446e-01
3.213721224732e-01
2.107908751797e-01
1.614728403462e-03
-1.650950188382e-01
-2.364030045466e-01
-3.116065221393e-01
-3.767741927137e-01
-4.730460284611e-01
-6.169358304572e-01
-7.641302144991e-01
-8.953285335144e-01
-9.826801495970e-01
-1.002383690652e+00
-9.435472834176e-01
-8.087976526321e-01
-6.014719455535e-01
-3.949185445162e-01
-2.955624716235e-01
-2.164994196008e-01
1.414058444853e-02
2.454562084167e-01
4.042709525454e-01
5.078860158342e-01
6.367470333715e-01
8.048308629293e-01
1.048240755303e+00
1.302217149324e+00
1.514630775926e+00
1.701756130482e+00
1.831249357968e+00
1.925773523724e+00
1.984693926412e+00
1.993734121971e+00
1.953783158041e+00
1.864843635127e+00
1.730425327061e+00
1.553282091361e+00
1.339383228611e+00
1.079802932503e+00
8.140211303666e-01
6.011820572658e-01
4.625606665259e-01
3.529123251504e-01
2.103151371099e-01
-1.435998577042e-02
-1.778105117850e-01
-2.333573460501e-01
-2.999127473703e-01
-3.732685600706e-01
-4.729175595827e-01
-6.545302125843e-01
-8.309514414241e-01
-9.535849656209e-01
-1.003538854212e+00
-9.761598403050e-01
-8.708998997558e-01
-6.919430174434e-01
-4.494784226447e-01
-3.531357152895e-01
-2.853049518438e-01
-1.755471061443e-01
2.994081883942e-02
2.125713103753e-01
3.555051771165e-01
4.406265319398e-01
5.295060446970e-01
6.217212166551e-01
7.321348461390e-01
8.946070238280e-01
1.088023089956e+00
1.287107680924e+00
1.463181320498e+00
1.604877542908e+00
1.720115111875e+00
1.831190970018e+00
1.933397903143e+00
1.987645590678e+00
1.992108665512e+00
1.947406024380e+00
1.854130115481e+00
1.715417066316e+00
1.534699125107e+00
1.317160458944e+00
1.084948827310e+00
8.493993578553e-01
6.268379304267e-01
4.796708518294e-01
3.728528649412e-01
2.367884998519e-01
2.900334275795e-02
-1.651636529999e-01
-2.506887973893e-01
-3.408245272357e-01
-4.469317124759e-01
-6.090607294677e-01
-7.866909587592e-01
-9.211751696494e-01
-9.959990187395e-01
-9.934575807608e-01
-9.139186450620e-01
-7.581262683831e-01
-5.324727652995e-01
-3.639368936169e-01
-2.744526138756e-01
-1.332861903797e-01
1.539463400590e-01
3.605608097792e-01
4.689471146849e-01
5.908526149325e-01
7.360297207745e-01
9.570003308581e-01
1.219911315499e+00
1.440940362435e+00
1.563494751076e+00
1.668200271227e+00
1.761084610381e+00
1.842296682457e+00
1.910070659860e+00
1.960833443090e+00
1.991785885150e+00
1.989663292540e+00
1.939014783965e+00
1.840725800867e+00
1.696684696949e+00
1.511808412817e+00
1.289440964218e+00
1.024824867725e+00
7.578403781606e-01
